;$FILEVERSION=1.1
;$STARTTIME=45864.4856810648
;
;   C:\Users\emedrano\Documents\Alternator - AUDI\ECU Information_2.trc
;
;   Start time: 7/26/2025 11:39:22.844.0
;
;   Message Number
;   |         Time Offset (ms)
;   |         |        Type
;   |         |        |        ID (hex)
;   |         |        |        |     Data Length Code
;   |         |        |        |     |   Data Bytes (hex) ...
;   |         |        |        |     |   |
;---+--   ----+----  --+--  ----+---  +  -+ -- -- -- -- -- -- --
     1)         1.6  Rx         01A0  8  C3 01 71 F2 3F 00 00 00 
     2)         1.8  Rx         01AC  8  41 11 FF A3 C3 FF 01 03 
     3)         2.1  Rx     1A555510  8  80 34 4E 30 30 89 00 00 
     4)         2.5  Rx         0151  8  17 15 FF FF FC 03 00 7D 
     5)         7.5  Rx         01A0  8  FF 9F 0F C3 3F 00 00 00 
     6)        12.5  Rx         01AC  8  E0 1F F0 03 42 E2 D1 02 
     7)        17.5  Rx         018D  8  00 00 7D B3 00 00 3B 01 
     8)        21.4  Rx         01A0  8  B2 02 71 F2 3F 00 00 00 
     9)        21.7  Rx         01AC  8  BB 12 FF A3 C3 FF 01 03 
    10)        22.5  Rx         00A8  8  00 E0 FF D6 99 64 6E 0E 
    11)        27.5  Rx         00EE  8  00 00 00 00 00 00 40 8F 
    12)        31.6  Rx     1B000085  8  85 40 04 01 00 00 00 00 
    13)        32.5  Rx         0152  8  EF D9 CE 7C 3D D7 7E 9D 
    14)        37.5  Rx         0151  8  92 16 FF 7F FC 03 00 7D 
    15)        41.5  Rx         01A0  8  C2 03 71 F2 3F 00 00 00 
    16)        41.7  Rx         01AC  8  71 13 FF A3 C3 FF 01 03 
    17)        42.5  Rx         018D  8  00 10 7D B3 00 00 3B 01 
    18)        47.5  Rx         03A3  8  17 9D 2F 42 42 3F FE CB 
    19)        52.5  Rx         00A8  8  00 E0 FF D6 99 64 66 0E 
    20)        57.5  Rx         00EE  8  00 00 00 00 00 00 40 8F 
    21)        61.5  Rx         01A0  8  CE 04 71 F2 3F 00 00 00 
    22)        61.8  Rx         01AC  8  34 14 FF A3 C3 FF 01 03 
    23)        62.0  Rx         02C0  8  8F 01 39 3F 60 1C 08 50 
    24)        62.5  Rx         0152  8  A7 DA CE 7C 3D D4 7E 9D 
    25)        67.3  Rx         03C0  4  9F 0D 23 00 
    26)        72.5  Rx         00FD  8  05 E4 3F 00 00 00 00 00 
    27)        77.5  Rx         0504  8  FF 06 00 00 26 11 14 11 
    28)        81.6  Rx         01A0  8  FB 05 71 F2 3F 00 00 00 
    29)        81.9  Rx         01AC  8  95 15 FF A3 C3 FF 01 03 
    30)        82.5  Rx         0040  8  61 09 00 01 81 00 00 B6 
    31)        87.5  Rx         0151  8  3A 18 FF 7F FC 03 00 7D 
    32)        92.5  Rx         0040  8  F8 08 00 01 81 00 00 B4 
    33)        97.5  Rx         00A8  8  00 E0 FF D6 99 64 78 0E 
    34)       101.6  Rx         01A0  8  D9 06 71 F2 3F 00 00 00 
    35)       101.8  Rx         01AC  8  42 16 FF A3 C3 FF 01 03 
    36)       102.5  Rx         0151  8  17 15 FF FF FC 03 00 7D 
    37)       107.5  Rx         01A0  8  FF 9F 0F C3 3F 00 00 00 
    38)       112.5  Rx         01AC  8  E0 1F F0 03 42 E2 D1 02 
    39)       117.5  Rx         018D  8  00 00 7D B3 00 00 3B 01 
    40)       121.7  Rx         01A0  8  31 07 71 F2 3F 00 00 00 
    41)       121.9  Rx         01AC  8  DD 17 FF A3 C3 FF 01 03 
    42)       122.5  Rx         00A8  8  00 E0 FF D6 99 64 6E 0E 
    43)       127.5  Rx         00EE  8  00 00 00 00 00 00 40 8F 
    44)       132.5  Rx         0152  8  EF D9 CE 7C 3D D7 7E 9D 
    45)       137.5  Rx         0151  8  92 16 FF 7F FC 03 00 7D 
    46)       141.5  Rx         01A0  8  A0 08 71 F2 3F 00 00 00 
    47)       141.7  Rx         01AC  8  32 18 FF A3 C3 FF 01 03 
    48)       142.0  Rx         02C0  8  70 02 39 3F 60 1C 08 50 
    49)       142.6  Rx         018D  8  00 10 7D B3 00 00 3B 01 
    50)       147.5  Rx         03A3  8  17 9D 2F 42 42 3F FE CB 
    51)       152.5  Rx         00A8  8  00 E0 FF D6 99 64 66 0E 
    52)       157.5  Rx         00EE  8  00 00 00 00 00 00 40 8F 
    53)       161.7  Rx         01A0  8  36 09 71 F2 3F 00 00 00 
    54)       161.9  Rx         01AC  8  F3 19 FF A3 C3 FF 01 03 
    55)       162.5  Rx         0152  8  A7 DA CE 7C 3D D4 7E 9D 
    56)       167.3  Rx         03C0  4  9F 0D 23 00 
    57)       172.5  Rx         00FD  8  05 E4 3F 00 00 00 00 00 
    58)       177.5  Rx         0504  8  FF 06 00 00 26 11 14 11 
    59)       181.5  Rx         01A0  8  14 0A 71 F2 3F 00 00 00 
    60)       181.7  Rx         01AC  8  DF 1A FF A3 C3 FF 01 03 
    61)       182.5  Rx         0040  8  61 09 00 01 81 00 00 B6 
    62)       187.5  Rx         0151  8  3A 18 FF 7F FC 03 00 7D 
    63)       192.5  Rx         0040  8  F8 08 00 01 81 00 00 B4 
    64)       197.5  Rx         00A8  8  00 E0 FF D6 99 64 78 0E 
    65)       201.7  Rx         01A0  8  71 0B 71 F2 3F 00 00 00 
    66)       201.9  Rx         01AC  8  77 1B FF A3 C3 FF 01 03 
    67)       202.5  Rx         0151  8  17 15 FF FF FC 03 00 7D 
    68)       207.5  Rx         01A0  8  FF 9F 0F C3 3F 00 00 00 
    69)       212.4  Rx         0700  8  02 3E 80 FF FF FF FF FF 
    70)       212.6  Rx         01AC  8  E0 1F F0 03 42 E2 D1 02 
    71)       217.5  Rx         018D  8  00 00 7D B3 00 00 3B 01 
    72)       221.6  Rx         01A0  8  AB 0C 71 F2 3F 00 00 00 
    73)       221.8  Rx         01AC  8  31 1C FF A3 C3 FF 01 03 
    74)       222.1  Rx         02C0  8  C8 03 39 3F 60 1C 08 50 
    75)       223.9  Rx         00A8  8  00 E0 FF D6 99 64 6E 0E 
    76)       227.5  Rx         00EE  8  00 00 00 00 00 00 40 8F 
    77)       231.6  Rx     1B000085  8  85 40 04 01 00 00 00 00 
    78)       232.5  Rx         0152  8  EF D9 CE 7C 3D D7 7E 9D 
    79)       237.5  Rx         0151  8  92 16 FF 7F FC 03 00 7D 
    80)       241.6  Rx         01A0  8  E9 0D 71 F2 3F 00 00 00 
    81)       241.9  Rx         01AC  8  09 1D FF A3 C3 FF 01 03 
    82)       242.5  Rx         018D  8  00 10 7D B3 00 00 3B 01 
    83)       247.5  Rx         03A3  8  17 9D 2F 42 42 3F FE CB 
    84)       252.5  Rx         00A8  8  00 E0 FF D6 99 64 66 0E 
    85)       257.5  Rx         00EE  8  00 00 00 00 00 00 40 8F 
    86)       261.5  Rx         01A0  8  90 0E 71 F2 3F 00 00 00 
    87)       261.7  Rx         01AC  8  6E 1E FF A3 C3 FF 01 03 
    88)       262.5  Rx         0152  8  A7 DA CE 7C 3D D4 7E 9D 
    89)       267.3  Rx         03C0  4  9F 0D 23 00 
    90)       272.5  Rx         00FD  8  05 E4 3F 00 00 00 00 00 
    91)       277.5  Rx         0504  8  FF 06 00 00 26 11 14 11 
    92)       281.8  Rx         01A0  8  83 0F 71 F2 3F 00 00 00 
    93)       282.0  Rx         01AC  8  2C 1F FF A3 C3 FF 01 03 
    94)       282.5  Rx         0040  8  61 09 00 01 81 00 00 B6 
    95)       287.5  Rx         0151  8  3A 18 FF 7F FC 03 00 7D 
    96)       292.5  Rx         0040  8  F8 08 00 01 81 00 00 B4 
    97)       297.5  Rx         00A8  8  00 E0 FF D6 99 64 78 0E 
    98)       301.7  Rx         01A0  8  74 00 71 F2 3F 00 00 00 
    99)       301.9  Rx         01AC  8  8F 10 FF A3 C3 FF 01 03 
   100)       302.2  Rx         02C0  8  51 04 39 3F 60 1C 08 50 
   101)       302.5  Rx         0151  8  17 15 FF FF FC 03 00 7D 
   102)       307.5  Rx         01A0  8  FF 9F 0F C3 3F 00 00 00 
   103)       312.5  Rx         01AC  8  E0 1F F0 03 42 E2 D1 02 
   104)       317.5  Rx         018D  8  00 00 7D B3 00 00 3B 01 
   105)       321.5  Rx         01A0  8  C3 01 71 F2 3F 00 00 00 
   106)       321.8  Rx         01AC  8  41 11 FF A3 C3 FF 01 03 
   107)       322.5  Rx         00A8  8  00 E0 FF D6 99 64 6E 0E 
   108)       327.5  Rx         00EE  8  00 00 00 00 00 00 40 8F 
   109)       332.5  Rx         0152  8  EF D9 CE 7C 3D D7 7E 9D 
   110)       337.5  Rx         0151  8  92 16 FF 7F FC 03 00 7D 
   111)       341.6  Rx         01A0  8  B2 02 71 F2 3F 00 00 00 
   112)       341.8  Rx         01AC  8  BB 12 FF A3 C3 FF 01 03 
   113)       342.1  Rx     17F00085  8  20 85 00 00 00 00 01 80 
   114)       342.4  Rx     1A5554A7  8  42 00 00 00 00 00 00 80 
   115)       342.6  Rx         018D  8  00 10 7D B3 00 00 3B 01 
   116)       347.5  Rx         03A3  8  17 9D 2F 42 42 3F FE CB 
   117)       352.5  Rx         00A8  8  00 E0 FF D6 99 64 66 0E 
   118)       357.5  Rx         00EE  8  00 00 00 00 00 00 40 8F 
   119)       361.5  Rx         01A0  8  C2 03 71 F2 3F 00 00 00 
   120)       361.8  Rx         01AC  8  71 13 FF A3 C3 FF 01 03 
   121)       362.5  Rx         0152  8  A7 DA CE 7C 3D D4 7E 9D 
   122)       367.3  Rx         03C0  4  9F 0D 23 00 
   123)       372.5  Rx         00FD  8  05 E4 3F 00 00 00 00 00 
   124)       377.5  Rx         0504  8  FF 06 00 00 26 11 14 11 
   125)       381.5  Rx         01A0  8  CE 04 71 F2 3F 00 00 00 
   126)       381.7  Rx         01AC  8  34 14 FF A3 C3 FF 01 03 
   127)       382.0  Rx         02C0  8  45 05 39 3F 60 1C 08 50 
   128)       382.5  Rx         0040  8  61 09 00 01 81 00 00 B6 
   129)       387.5  Rx         0151  8  3A 18 FF 7F FC 03 00 7D 
   130)       392.5  Rx         0040  8  F8 08 00 01 81 00 00 B4 
   131)       397.5  Rx         00A8  8  00 E0 FF D6 99 64 78 0E 
   132)       401.5  Rx         01A0  8  FB 05 71 F2 3F 00 00 00 
   133)       401.7  Rx         01AC  8  95 15 FF A3 C3 FF 01 03 
   134)       402.5  Rx         0151  8  17 15 FF FF FC 03 00 7D 
   135)       407.5  Rx         01A0  8  FF 9F 0F C3 3F 00 00 00 
   136)       412.5  Rx         01AC  8  E0 1F F0 03 42 E2 D1 02 
   137)       417.5  Rx         018D  8  00 00 7D B3 00 00 3B 01 
   138)       421.7  Rx         01A0  8  D9 06 71 F2 3F 00 00 00 
   139)       422.0  Rx         01AC  8  42 16 FF A3 C3 FF 01 03 
   140)       422.5  Rx         00A8  8  00 E0 FF D6 99 64 6E 0E 
   141)       427.5  Rx         00EE  8  00 00 00 00 00 00 40 8F 
   142)       431.7  Rx     1B000085  8  85 40 04 01 00 00 00 00 
   143)       432.5  Rx         0152  8  EF D9 CE 7C 3D D7 7E 9D 
   144)       437.4  Rx         0151  8  92 16 FF 7F FC 03 00 7D 
   145)       441.5  Rx         01A0  8  31 07 71 F2 3F 00 00 00 
   146)       441.7  Rx         01AC  8  DD 17 FF A3 C3 FF 01 03 
   147)       442.4  Rx         018D  8  00 10 7D B3 00 00 3B 01 
   148)       447.4  Rx         03A3  8  17 9D 2F 42 42 3F FE CB 
   149)       452.4  Rx         00A8  8  00 E0 FF D6 99 64 66 0E 
   150)       457.4  Rx         00EE  8  00 00 00 00 00 00 40 8F 
   151)       461.9  Rx         01A0  8  A0 08 71 F2 3F 00 00 00 
   152)       462.1  Rx         01AC  8  32 18 FF A3 C3 FF 01 03 
   153)       462.4  Rx         02C0  8  B8 06 39 3F 60 1C 08 50 
   154)       462.6  Rx         0152  8  A7 DA CE 7C 3D D4 7E 9D 
   155)       467.2  Rx         03C0  4  9F 0D 23 00 
   156)       472.4  Rx         00FD  8  05 E4 3F 00 00 00 00 00 
   157)       477.4  Rx         0504  8  FF 06 00 00 26 11 14 11 
   158)       481.7  Rx         01A0  8  36 09 71 F2 3F 00 00 00 
   159)       481.9  Rx         01AC  8  F3 19 FF A3 C3 FF 01 03 
   160)       482.4  Rx         0040  8  61 09 00 01 81 00 00 B6 
   161)       487.4  Rx         0151  8  3A 18 FF 7F FC 03 00 7D 
   162)       492.4  Rx         0040  8  F8 08 00 01 81 00 00 B4 
   163)       497.4  Rx         00A8  8  00 E0 FF D6 99 64 78 0E 
   164)       501.4  Rx         01A0  8  14 0A 71 F2 3F 00 00 00 
   165)       501.6  Rx         01AC  8  DF 1A FF A3 C3 FF 01 03 
   166)       502.4  Rx         0151  8  17 15 FF FF FC 03 00 7D 
   167)       507.4  Rx         01A0  8  FF 9F 0F C3 3F 00 00 00 
   168)       512.4  Rx         01AC  8  E0 1F F0 03 42 E2 D1 02 
   169)       517.4  Rx         018D  8  00 00 7D B3 00 00 3B 01 
   170)       521.5  Rx         01A0  8  71 0B 71 F2 3F 00 00 00 
   171)       521.7  Rx         01AC  8  77 1B FF A3 C3 FF 01 03 
   172)       522.4  Rx         00A8  8  00 E0 FF D6 99 64 6E 0E 
   173)       527.4  Rx         00EE  8  00 00 00 00 00 00 40 8F 
   174)       533.8  Rx         0152  8  EF D9 CE 7C 3D D7 7E 9D 
   175)       537.4  Rx         0151  8  92 16 FF 7F FC 03 00 7D 
   176)       541.6  Rx         01A0  8  AB 0C 71 F2 3F 00 00 00 
   177)       541.8  Rx         01AC  8  31 1C FF A3 C3 FF 01 03 
   178)       542.1  Rx         02C0  8  18 07 39 3F 60 1C 08 50 
   179)       542.4  Rx         018D  8  00 10 7D B3 00 00 3B 01 
   180)       547.4  Rx         03A3  8  17 9D 2F 42 42 3F FE CB 
   181)       552.4  Rx         00A8  8  00 E0 FF D6 99 64 66 0E 
   182)       557.4  Rx         00EE  8  00 00 00 00 00 00 40 8F 
   183)       561.3  Rx         01A0  8  E9 0D 71 F2 3F 00 00 00 
   184)       561.6  Rx         01AC  8  09 1D FF A3 C3 FF 01 03 
   185)       562.4  Rx         0152  8  A7 DA CE 7C 3D D4 7E 9D 
   186)       567.2  Rx         03C0  4  9F 0D 23 00 
   187)       572.4  Rx         00FD  8  05 E4 3F 00 00 00 00 00 
   188)       577.4  Rx         0504  8  FF 06 00 00 26 11 14 11 
   189)       581.6  Rx         01A0  8  90 0E 71 F2 3F 00 00 00 
   190)       581.9  Rx         01AC  8  6E 1E FF A3 C3 FF 01 03 
   191)       582.4  Rx         0040  8  61 09 00 01 81 00 00 B6 
   192)       587.4  Rx         0151  8  3A 18 FF 7F FC 03 00 7D 
   193)       592.4  Rx         0040  8  F8 08 00 01 81 00 00 B4 
   194)       597.4  Rx         00A8  8  00 E0 FF D6 99 64 78 0E 
   195)       601.6  Rx         01A0  8  83 0F 71 F2 3F 00 00 00 
   196)       601.9  Rx         01AC  8  2C 1F FF A3 C3 FF 01 03 
   197)       602.4  Rx         0151  8  17 15 FF FF FC 03 00 7D 
   198)       607.4  Rx         01A0  8  FF 9F 0F C3 3F 00 00 00 
   199)       612.4  Rx         01AC  8  E0 1F F0 03 42 E2 D1 02 
   200)       617.4  Rx         018D  8  00 00 7D B3 00 00 3B 01 
   201)       621.6  Rx         01A0  8  74 00 71 F2 3F 00 00 00 
   202)       621.9  Rx         01AC  8  8F 10 FF A3 C3 FF 01 03 
   203)       622.1  Rx         02C0  8  49 08 39 3F 60 1C 08 50 
   204)       622.4  Rx         00A8  8  00 E0 FF D6 99 64 6E 0E 
   205)       627.4  Rx         00EE  8  00 00 00 00 00 00 40 8F 
   206)       631.5  Rx     1B000085  8  85 40 04 01 00 00 00 00 
   207)       632.4  Rx         0152  8  EF D9 CE 7C 3D D7 7E 9D 
   208)       637.4  Rx         0151  8  92 16 FF 7F FC 03 00 7D 
   209)       641.5  Rx         01A0  8  C3 01 71 F2 3F 00 00 00 
   210)       641.8  Rx         01AC  8  41 11 FF A3 C3 FF 01 03 
   211)       642.4  Rx         018D  8  00 10 7D B3 00 00 3B 01 
   212)       647.4  Rx         03A3  8  17 9D 2F 42 42 3F FE CB 
   213)       652.4  Rx         00A8  8  00 E0 FF D6 99 64 66 0E 
   214)       657.4  Rx         00EE  8  00 00 00 00 00 00 40 8F 
   215)       661.5  Rx         01A0  8  B2 02 71 F2 3F 00 00 00 
   216)       661.7  Rx         01AC  8  BB 12 FF A3 C3 FF 01 03 
   217)       662.4  Rx         0152  8  A7 DA CE 7C 3D D4 7E 9D 
   218)       667.2  Rx         03C0  4  9F 0D 23 00 
   219)       672.4  Rx         00FD  8  05 E4 3F 00 00 00 00 00 
   220)       677.4  Rx         0504  8  FF 06 00 00 26 11 14 11 
   221)       681.5  Rx         01A0  8  C2 03 71 F2 3F 00 00 00 
   222)       681.7  Rx         01AC  8  71 13 FF A3 C3 FF 01 03 
   223)       682.4  Rx         0040  8  61 09 00 01 81 00 00 B6 
   224)       687.4  Rx         0151  8  3A 18 FF 7F FC 03 00 7D 
   225)       692.4  Rx         0040  8  F8 08 00 01 81 00 00 B4 
   226)       697.4  Rx         00A8  8  00 E0 FF D6 99 64 78 0E 
   227)       701.5  Rx         01A0  8  CE 04 71 F2 3F 00 00 00 
   228)       701.8  Rx         01AC  8  34 14 FF A3 C3 FF 01 03 
   229)       702.0  Rx         02C0  8  BC 09 39 3F 60 1C 08 50 
   230)       702.4  Rx         0151  8  17 15 FF FF FC 03 00 7D 
   231)       707.4  Rx         01A0  8  FF 9F 0F C3 3F 00 00 00 
   232)       712.4  Rx         01AC  8  E0 1F F0 03 42 E2 D1 02 
   233)       717.4  Rx         018D  8  00 00 7D B3 00 00 3B 01 
   234)       721.5  Rx         01A0  8  FB 05 71 F2 3F 00 00 00 
   235)       721.7  Rx         01AC  8  95 15 FF A3 C3 FF 01 03 
   236)       722.4  Rx         00A8  8  00 E0 FF D6 99 64 6E 0E 
   237)       724.3  Rx         0700  8  02 3E 80 FF FF FF FF FF 
   238)       727.4  Rx         00EE  8  00 00 00 00 00 00 40 8F 
   239)       732.4  Rx         0152  8  EF D9 CE 7C 3D D7 7E 9D 
   240)       737.4  Rx         0151  8  92 16 FF 7F FC 03 00 7D 
   241)       741.6  Rx         01A0  8  D9 06 71 F2 3F 00 00 00 
   242)       741.8  Rx         01AC  8  42 16 FF A3 C3 FF 01 03 
   243)       742.4  Rx         018D  8  00 10 7D B3 00 00 3B 01 
   244)       747.4  Rx         03A3  8  17 9D 2F 42 42 3F FE CB 
   245)       752.4  Rx         00A8  8  00 E0 FF D6 99 64 66 0E 
   246)       757.4  Rx         00EE  8  00 00 00 00 00 00 40 8F 
   247)       761.6  Rx         01A0  8  31 07 71 F2 3F 00 00 00 
   248)       761.9  Rx         01AC  8  DD 17 FF A3 C3 FF 01 03 
   249)       762.4  Rx         0152  8  A7 DA CE 7C 3D D4 7E 9D 
   250)       767.2  Rx         03C0  4  9F 0D 23 00 
   251)       772.4  Rx         00FD  8  05 E4 3F 00 00 00 00 00 
   252)       777.4  Rx         0504  8  FF 06 00 00 26 11 14 11 
   253)       781.6  Rx         01A0  8  A0 08 71 F2 3F 00 00 00 
   254)       781.8  Rx         01AC  8  32 18 FF A3 C3 FF 01 03 
   255)       782.1  Rx         02C0  8  08 0A 39 3F 60 1C 08 50 
   256)       782.4  Rx         0040  8  61 09 00 01 81 00 00 B6 
   257)       787.4  Rx         0151  8  3A 18 FF 7F FC 03 00 7D 
   258)       792.4  Rx         0040  8  F8 08 00 01 81 00 00 B4 
   259)       797.4  Rx         00A8  8  00 E0 FF D6 99 64 78 0E 
   260)       801.5  Rx         01A0  8  36 09 71 F2 3F 00 00 00 
   261)       801.8  Rx         01AC  8  F3 19 FF A3 C3 FF 01 03 
   262)       802.4  Rx         0151  8  17 15 FF FF FC 03 00 7D 
   263)       807.4  Rx         01A0  8  FF 9F 0F C3 3F 00 00 00 
   264)       812.4  Rx         01AC  8  E0 1F F0 03 42 E2 D1 02 
   265)       817.4  Rx         018D  8  00 00 7D B3 00 00 3B 01 
   266)       821.7  Rx         01A0  8  14 0A 71 F2 3F 00 00 00 
   267)       821.9  Rx         01AC  8  DF 1A FF A3 C3 FF 01 03 
   268)       822.4  Rx         00A8  8  00 E0 FF D6 99 64 6E 0E 
   269)       827.4  Rx         00EE  8  00 00 00 00 00 00 40 8F 
   270)       831.5  Rx     1B000085  8  85 40 04 01 00 00 00 00 
   271)       832.4  Rx         0152  8  EF D9 CE 7C 3D D7 7E 9D 
   272)       838.8  Rx         0151  8  92 16 FF 7F FC 03 00 7D 
   273)       841.5  Rx         01A0  8  71 0B 71 F2 3F 00 00 00 
   274)       841.7  Rx         01AC  8  77 1B FF A3 C3 FF 01 03 
   275)       842.0  Rx     17F00085  8  20 85 00 00 00 00 01 80 
   276)       842.3  Rx     1A5554A7  8  42 00 00 00 00 00 00 80 
   277)       842.6  Rx         018D  8  00 10 7D B3 00 00 3B 01 
   278)       847.4  Rx         03A3  8  17 9D 2F 42 42 3F FE CB 
   279)       852.4  Rx         00A8  8  00 E0 FF D6 99 64 66 0E 
   280)       857.4  Rx         00EE  8  00 00 00 00 00 00 40 8F 
   281)       861.6  Rx         01A0  8  AB 0C 71 F2 3F 00 00 00 
   282)       861.8  Rx         01AC  8  31 1C FF A3 C3 FF 01 03 
   283)       862.1  Rx         02C0  8  4D 0B 39 3F 60 1C 08 50 
   284)       862.4  Rx         0152  8  A7 DA CE 7C 3D D4 7E 9D 
   285)       867.2  Rx         03C0  4  9F 0D 23 00 
   286)       872.4  Rx         00FD  8  05 E4 3F 00 00 00 00 00 
   287)       877.4  Rx         0504  8  FF 06 00 00 26 11 14 11 
   288)       881.3  Rx         01A0  8  E9 0D 71 F2 3F 00 00 00 
   289)       881.5  Rx         01AC  8  09 1D FF A3 C3 FF 01 03 
   290)       882.4  Rx         0040  8  61 09 00 01 81 00 00 B6 
   291)       887.4  Rx         0151  8  3A 18 FF 7F FC 03 00 7D 
   292)       892.4  Rx         0040  8  F8 08 00 01 81 00 00 B4 
   293)       897.4  Rx         00A8  8  00 E0 FF D6 99 64 78 0E 
   294)       901.5  Rx         01A0  8  90 0E 71 F2 3F 00 00 00 
   295)       901.8  Rx         01AC  8  6E 1E FF A3 C3 FF 01 03 
   296)       902.4  Rx         0151  8  17 15 FF FF FC 03 00 7D 
   297)       907.4  Rx         01A0  8  FF 9F 0F C3 3F 00 00 00 
   298)       912.4  Rx         01AC  8  E0 1F F0 03 42 E2 D1 02 
   299)       917.4  Rx         018D  8  00 00 7D B3 00 00 3B 01 
   300)       921.3  Rx         01A0  8  83 0F 71 F2 3F 00 00 00 
   301)       921.5  Rx         01AC  8  2C 1F FF A3 C3 FF 01 03 
   302)       922.4  Rx         00A8  8  00 E0 FF D6 99 64 6E 0E 
   303)       927.4  Rx         00EE  8  00 00 00 00 00 00 40 8F 
   304)       932.4  Rx         0152  8  EF D9 CE 7C 3D D7 7E 9D 
   305)       937.4  Rx         0151  8  92 16 FF 7F FC 03 00 7D 
   306)       941.3  Rx         01A0  8  74 00 71 F2 3F 00 00 00 
   307)       941.5  Rx         01AC  8  8F 10 FF A3 C3 FF 01 03 
   308)       941.8  Rx         02C0  8  15 0C 39 3F 60 1C 08 50 
   309)       942.4  Rx         018D  8  00 10 7D B3 00 00 3B 01 
   310)       947.4  Rx         03A3  8  17 9D 2F 42 42 3F FE CB 
   311)       952.4  Rx         00A8  8  00 E0 FF D6 99 64 66 0E 
   312)       957.4  Rx         00EE  8  00 00 00 00 00 00 40 8F 
   313)       961.5  Rx         01A0  8  C3 01 71 F2 3F 00 00 00 
   314)       961.7  Rx         01AC  8  41 11 FF A3 C3 FF 01 03 
   315)       962.0  Rx     1A555510  8  81 32 38 50 20 77 00 00 
   316)       962.4  Rx         0152  8  A7 DA CE 7C 3D D4 7E 9D 
   317)       967.2  Rx         03C0  4  9F 0D 23 00 
   318)       972.4  Rx         00FD  8  05 E4 3F 00 00 00 00 00 
   319)       977.4  Rx         0504  8  FF 06 00 00 26 11 14 11 
   320)       981.4  Rx         01A0  8  B2 02 71 F2 3F 00 00 00 
   321)       981.7  Rx         01AC  8  BB 12 FF A3 C3 FF 01 03 
   322)       982.4  Rx         0040  8  61 09 00 01 81 00 00 B6 
   323)       987.4  Rx         0151  8  3A 18 FF 7F FC 03 00 7D 
   324)       992.4  Rx         0040  8  F8 08 00 01 81 00 00 B4 
   325)       997.4  Rx         00A8  8  00 E0 FF D6 99 64 78 0E 
   326)      1001.4  Rx         01A0  8  C2 03 71 F2 3F 00 00 00 
   327)      1001.6  Rx         01AC  8  71 13 FF A3 C3 FF 01 03 
   328)      1002.4  Rx         0151  8  17 15 FF FF FC 03 00 7D 
   329)      1007.4  Rx         01A0  8  FF 9F 0F C3 3F 00 00 00 
   330)      1012.4  Rx         01AC  8  E0 1F F0 03 42 E2 D1 02 
   331)      1017.4  Rx         018D  8  00 00 7D B3 00 00 3B 01 
   332)      1021.5  Rx         01A0  8  CE 04 71 F2 3F 00 00 00 
   333)      1021.8  Rx         01AC  8  34 14 FF A3 C3 FF 01 03 
   334)      1022.0  Rx         02C0  8  7D 0D 39 3F 60 1C 08 50 
   335)      1022.4  Rx         00A8  8  00 E0 FF D6 99 64 6E 0E 
   336)      1027.4  Rx         00EE  8  00 00 00 00 00 00 40 8F 
   337)      1031.6  Rx     1B000085  8  85 40 04 01 00 00 00 00 
   338)      1032.4  Rx         0152  8  EF D9 CE 7C 3D D7 7E 9D 
   339)      1037.4  Rx         0151  8  92 16 FF 7F FC 03 00 7D 
   340)      1041.4  Rx         01A0  8  FB 05 71 F2 3F 00 00 00 
   341)      1041.7  Rx         01AC  8  95 15 FF A3 C3 FF 01 03 
   342)      1042.4  Rx         018D  8  00 10 7D B3 00 00 3B 01 
   343)      1047.4  Rx         03A3  8  17 9D 2F 42 42 3F FE CB 
   344)      1052.4  Rx         00A8  8  00 E0 FF D6 99 64 66 0E 
   345)      1057.4  Rx         00EE  8  00 00 00 00 00 00 40 8F 
   346)      1061.4  Rx         01A0  8  D9 06 71 F2 3F 00 00 00 
   347)      1061.7  Rx         01AC  8  42 16 FF A3 C3 FF 01 03 
   348)      1062.4  Rx         0152  8  A7 DA CE 7C 3D D4 7E 9D 
   349)      1067.2  Rx         03C0  4  9F 0D 23 00 
   350)      1072.4  Rx         00FD  8  05 E4 3F 00 00 00 00 00 
   351)      1077.4  Rx         0504  8  FF 06 00 00 26 11 14 11 
   352)      1081.6  Rx         01A0  8  31 07 71 F2 3F 00 00 00 
   353)      1081.8  Rx         01AC  8  DD 17 FF A3 C3 FF 01 03 
   354)      1082.4  Rx         0040  8  61 09 00 01 81 00 00 B6 
   355)      1087.4  Rx         0151  8  3A 18 FF 7F FC 03 00 7D 
   356)      1092.4  Rx         0040  8  F8 08 00 01 81 00 00 B4 
   357)      1097.4  Rx         00A8  8  00 E0 FF D6 99 64 78 0E 
   358)      1101.5  Rx         01A0  8  A0 08 71 F2 3F 00 00 00 
   359)      1101.8  Rx         01AC  8  32 18 FF A3 C3 FF 01 03 
   360)      1102.0  Rx         02C0  8  E3 0E 39 3F 60 1C 08 50 
   361)      1102.4  Rx         0151  8  17 15 FF FF FC 03 00 7D 
   362)      1107.4  Rx         01A0  8  FF 9F 0F C3 3F 00 00 00 
   363)      1112.4  Rx         01AC  8  E0 1F F0 03 42 E2 D1 02 
   364)      1117.4  Rx         018D  8  00 00 7D B3 00 00 3B 01 
   365)      1121.3  Rx         01A0  8  36 09 71 F2 3F 00 00 00 
   366)      1121.5  Rx         01AC  8  F3 19 FF A3 C3 FF 01 03 
   367)      1122.4  Rx         00A8  8  00 E0 FF D6 99 64 6E 0E 
   368)      1127.4  Rx         00EE  8  00 00 00 00 00 00 40 8F 
   369)      1132.4  Rx         0152  8  EF D9 CE 7C 3D D7 7E 9D 
   370)      1137.4  Rx         0151  8  92 16 FF 7F FC 03 00 7D 
   371)      1141.5  Rx         01A0  8  14 0A 71 F2 3F 00 00 00 
   372)      1141.7  Rx         01AC  8  DF 1A FF A3 C3 FF 01 03 
   373)      1142.4  Rx         018D  8  00 10 7D B3 00 00 3B 01 
   374)      1148.8  Rx         03A3  8  17 9D 2F 42 42 3F FE CB 
   375)      1152.4  Rx         00A8  8  00 E0 FF D6 99 64 66 0E 
   376)      1157.4  Rx         00EE  8  00 00 00 00 00 00 40 8F 
   377)      1161.4  Rx         01A0  8  71 0B 71 F2 3F 00 00 00 
   378)      1161.6  Rx         01AC  8  77 1B FF A3 C3 FF 01 03 
   379)      1162.4  Rx         0152  8  A7 DA CE 7C 3D D4 7E 9D 
   380)      1167.2  Rx         03C0  4  9F 0D 23 00 
   381)      1172.4  Rx         00FD  8  05 E4 3F 00 00 00 00 00 
   382)      1177.4  Rx         0504  8  FF 06 00 00 26 11 14 11 
   383)      1181.3  Rx         01A0  8  AB 0C 71 F2 3F 00 00 00 
   384)      1181.6  Rx         01AC  8  31 1C FF A3 C3 FF 01 03 
   385)      1181.8  Rx         02C0  8  CF 0F 39 3F 60 1C 08 50 
   386)      1182.4  Rx         0040  8  61 09 00 01 81 00 00 B6 
   387)      1187.4  Rx         0151  8  3A 18 FF 7F FC 03 00 7D 
   388)      1192.4  Rx         0040  8  F8 08 00 01 81 00 00 B4 
   389)      1197.4  Rx         00A8  8  00 E0 FF D6 99 64 78 0E 
   390)      1201.5  Rx         01A0  8  E9 0D 71 F2 3F 00 00 00 
   391)      1201.7  Rx         01AC  8  09 1D FF A3 C3 FF 01 03 
   392)      1202.4  Rx         0151  8  17 15 FF FF FC 03 00 7D 
   393)      1207.4  Rx         01A0  8  FF 9F 0F C3 3F 00 00 00 
   394)      1212.4  Rx         01AC  8  E0 1F F0 03 42 E2 D1 02 
   395)      1217.4  Rx         018D  8  00 00 7D B3 00 00 3B 01 
   396)      1221.4  Rx         01A0  8  90 0E 71 F2 3F 00 00 00 
   397)      1221.6  Rx         01AC  8  6E 1E FF A3 C3 FF 01 03 
   398)      1222.4  Rx         00A8  8  00 E0 FF D6 99 64 6E 0E 
   399)      1227.4  Rx         00EE  8  00 00 00 00 00 00 40 8F 
   400)      1231.5  Rx     1B000085  8  85 40 04 01 00 00 00 00 
   401)      1232.4  Rx         0152  8  EF D9 CE 7C 3D D7 7E 9D 
   402)      1235.6  Rx         0700  8  02 3E 80 FF FF FF FF FF 
   403)      1237.4  Rx         0151  8  92 16 FF 7F FC 03 00 7D 
   404)      1241.5  Rx         01A0  8  83 0F 71 F2 3F 00 00 00 
   405)      1241.8  Rx         01AC  8  2C 1F FF A3 C3 FF 01 03 
   406)      1242.4  Rx         018D  8  00 10 7D B3 00 00 3B 01 
   407)      1247.4  Rx         03A3  8  17 9D 2F 42 42 3F FE CB 
   408)      1252.4  Rx         00A8  8  00 E0 FF D6 99 64 66 0E 
   409)      1257.4  Rx         00EE  8  00 00 00 00 00 00 40 8F 
   410)      1261.5  Rx         01A0  8  74 00 71 F2 3F 00 00 00 
   411)      1261.7  Rx         01AC  8  8F 10 FF A3 C3 FF 01 03 
   412)      1261.9  Rx         02C0  8  57 00 39 3F 60 1C 08 50 
   413)      1262.4  Rx         0152  8  A7 DA CE 7C 3D D4 7E 9D 
   414)      1267.3  Rx         03C0  4  9F 0D 23 00 
   415)      1272.4  Rx         00FD  8  05 E4 3F 00 00 00 00 00 
   416)      1277.4  Rx         0504  8  FF 06 00 00 26 11 14 11 
   417)      1281.4  Rx         01A0  8  C3 01 71 F2 3F 00 00 00 
   418)      1281.6  Rx         01AC  8  41 11 FF A3 C3 FF 01 03 
   419)      1282.4  Rx         0040  8  61 09 00 01 81 00 00 B6 
   420)      1287.4  Rx         0151  8  3A 18 FF 7F FC 03 00 7D 
   421)      1292.4  Rx         0040  8  F8 08 00 01 81 00 00 B4 
   422)      1297.4  Rx         00A8  8  00 E0 FF D6 99 64 78 0E 
   423)      1301.4  Rx         01A0  8  B2 02 71 F2 3F 00 00 00 
   424)      1301.7  Rx         01AC  8  BB 12 FF A3 C3 FF 01 03 
   425)      1302.4  Rx         0151  8  17 15 FF FF FC 03 00 7D 
   426)      1307.4  Rx         01A0  8  FF 9F 0F C3 3F 00 00 00 
   427)      1312.4  Rx         01AC  8  E0 1F F0 03 42 E2 D1 02 
   428)      1317.4  Rx         018D  8  00 00 7D B3 00 00 3B 01 
   429)      1321.5  Rx         01A0  8  C2 03 71 F2 3F 00 00 00 
   430)      1321.7  Rx         01AC  8  71 13 FF A3 C3 FF 01 03 
   431)      1322.4  Rx         00A8  8  00 E0 FF D6 99 64 6E 0E 
   432)      1327.4  Rx         00EE  8  00 00 00 00 00 00 40 8F 
   433)      1332.4  Rx         0152  8  EF D9 CE 7C 3D D7 7E 9D 
   434)      1337.4  Rx         0151  8  92 16 FF 7F FC 03 00 7D 
   435)      1341.5  Rx         01A0  8  CE 04 71 F2 3F 00 00 00 
   436)      1341.8  Rx         01AC  8  34 14 FF A3 C3 FF 01 03 
   437)      1342.0  Rx         02C0  8  8F 01 39 3F 60 1C 08 50 
   438)      1342.3  Rx     17F00085  8  20 85 00 00 00 00 01 80 
   439)      1342.5  Rx         018D  8  00 10 7D B3 00 00 3B 01 
   440)      1342.8  Rx     1A5554A7  8  42 00 00 00 00 00 00 80 
   441)      1347.4  Rx         03A3  8  17 9D 2F 42 42 3F FE CB 
   442)      1352.4  Rx         00A8  8  00 E0 FF D6 99 64 66 0E 
   443)      1357.4  Rx         00EE  8  00 00 00 00 00 00 40 8F 
   444)      1361.4  Rx         01A0  8  FB 05 71 F2 3F 00 00 00 
   445)      1361.6  Rx         01AC  8  95 15 FF A3 C3 FF 01 03 
   446)      1362.4  Rx         0152  8  A7 DA CE 7C 3D D4 7E 9D 
   447)      1367.2  Rx         03C0  4  9F 0D 23 00 
   448)      1372.4  Rx         00FD  8  05 E4 3F 00 00 00 00 00 
   449)      1377.4  Rx         0504  8  FF 06 00 00 26 11 14 11 
   450)      1381.3  Rx         01A0  8  D9 06 71 F2 3F 00 00 00 
   451)      1381.6  Rx         01AC  8  42 16 FF A3 C3 FF 01 03 
   452)      1382.4  Rx         0040  8  61 09 00 01 81 00 00 B6 
   453)      1387.4  Rx         0151  8  3A 18 FF 7F FC 03 00 7D 
   454)      1392.4  Rx         0040  8  F8 08 00 01 81 00 00 B4 
   455)      1397.4  Rx         00A8  8  00 E0 FF D6 99 64 78 0E 
   456)      1401.4  Rx         01A0  8  31 07 71 F2 3F 00 00 00 
   457)      1401.6  Rx         01AC  8  DD 17 FF A3 C3 FF 01 03 
   458)      1402.4  Rx         0151  8  17 15 FF FF FC 03 00 7D 
   459)      1407.4  Rx         01A0  8  FF 9F 0F C3 3F 00 00 00 
   460)      1412.4  Rx         01AC  8  E0 1F F0 03 42 E2 D1 02 
   461)      1417.4  Rx         018D  8  00 00 7D B3 00 00 3B 01 
   462)      1421.4  Rx         01A0  8  A0 08 71 F2 3F 00 00 00 
   463)      1421.6  Rx         01AC  8  32 18 FF A3 C3 FF 01 03 
   464)      1421.9  Rx         02C0  8  70 02 39 3F 60 1C 08 50 
   465)      1422.4  Rx         00A8  8  00 E0 FF D6 99 64 6E 0E 
   466)      1427.4  Rx         00EE  8  00 00 00 00 00 00 40 8F 
   467)      1431.2  Rx     1B000085  8  85 40 04 01 00 00 00 00 
   468)      1432.3  Rx         0152  8  EF D9 CE 7C 3D D7 7E 9D 
   469)      1437.3  Rx         0151  8  92 16 FF 7F FC 03 00 7D 
   470)      1441.6  Rx         01A0  8  36 09 71 F2 3F 00 00 00 
   471)      1441.8  Rx         01AC  8  F3 19 FF A3 C3 FF 01 03 
   472)      1442.3  Rx         018D  8  00 10 7D B3 00 00 3B 01 
   473)      1447.3  Rx         03A3  8  17 9D 2F 42 42 3F FE CB 
   474)      1452.3  Rx         00A8  8  00 E0 FF D6 99 64 66 0E 
   475)      1457.3  Rx         00EE  8  00 00 00 00 00 00 40 8F 
   476)      1461.5  Rx         01A0  8  14 0A 71 F2 3F 00 00 00 
   477)      1461.8  Rx         01AC  8  DF 1A FF A3 C3 FF 01 03 
   478)      1462.3  Rx         0152  8  A7 DA CE 7C 3D D4 7E 9D 
   479)      1467.1  Rx         03C0  4  9F 0D 23 00 
   480)      1472.3  Rx         00FD  8  05 E4 3F 00 00 00 00 00 
   481)      1477.3  Rx         0504  8  FF 06 00 00 26 11 14 11 
   482)      1481.3  Rx         01A0  8  71 0B 71 F2 3F 00 00 00 
   483)      1481.5  Rx         01AC  8  77 1B FF A3 C3 FF 01 03 
   484)      1482.3  Rx         0040  8  61 09 00 01 81 00 00 B6 
   485)      1487.3  Rx         0151  8  3A 18 FF 7F FC 03 00 7D 
   486)      1492.3  Rx         0040  8  F8 08 00 01 81 00 00 B4 
   487)      1497.3  Rx         00A8  8  00 E0 FF D6 99 64 78 0E 
   488)      1501.4  Rx         01A0  8  AB 0C 71 F2 3F 00 00 00 
   489)      1501.6  Rx         01AC  8  31 1C FF A3 C3 FF 01 03 
   490)      1501.8  Rx         02C0  8  C8 03 39 3F 60 1C 08 50 
   491)      1502.3  Rx         0151  8  17 15 FF FF FC 03 00 7D 
   492)      1507.3  Rx         01A0  8  FF 9F 0F C3 3F 00 00 00 
   493)      1512.3  Rx         01AC  8  E0 1F F0 03 42 E2 D1 02 
   494)      1517.3  Rx         018D  8  00 00 7D B3 00 00 3B 01 
   495)      1521.4  Rx         01A0  8  E9 0D 71 F2 3F 00 00 00 
   496)      1521.6  Rx         01AC  8  09 1D FF A3 C3 FF 01 03 
   497)      1522.3  Rx         00A8  8  00 E0 FF D6 99 64 6E 0E 
   498)      1527.3  Rx         00EE  8  00 00 00 00 00 00 40 8F 
   499)      1532.3  Rx         0152  8  EF D9 CE 7C 3D D7 7E 9D 
   500)      1537.3  Rx         0151  8  92 16 FF 7F FC 03 00 7D 
   501)      1541.3  Rx         01A0  8  90 0E 71 F2 3F 00 00 00 
   502)      1541.6  Rx         01AC  8  6E 1E FF A3 C3 FF 01 03 
   503)      1542.3  Rx         018D  8  00 10 7D B3 00 00 3B 01 
   504)      1547.3  Rx         03A3  8  17 9D 2F 42 42 3F FE CB 
   505)      1552.3  Rx         00A8  8  00 E0 FF D6 99 64 66 0E 
   506)      1557.3  Rx         00EE  8  00 00 00 00 00 00 40 8F 
   507)      1561.7  Rx         01A0  8  83 0F 71 F2 3F 00 00 00 
   508)      1562.0  Rx         01AC  8  2C 1F FF A3 C3 FF 01 03 
   509)      1568.9  Rx         0040  8  F8 08 00 01 81 00 00 B4 
   510)      1573.4  Rx         00A8  8  00 E0 FF D6 99 64 78 0E 
   511)      1578.4  Rx         0151  8  17 15 FF FF FC 03 00 7D 
   512)      1581.4  Rx         01A0  8  74 00 71 F2 3F 00 00 00 
   513)      1581.6  Rx         01AC  8  8F 10 FF A3 C3 FF 01 03 
   514)      1581.8  Rx         02C0  8  51 04 39 3F 60 1C 08 50 
   515)      1583.4  Rx         01A0  8  FF 9F 0F C3 3F 00 00 00 
   516)      1588.4  Rx         01AC  8  E0 1F F0 03 42 E2 D1 02 
   517)      1593.4  Rx         018D  8  00 00 7D B3 00 00 3B 01 
   518)      1598.4  Rx         00A8  8  00 E0 FF D6 99 64 6E 0E 
   519)      1601.6  Rx         01A0  8  C3 01 71 F2 3F 00 00 00 
   520)      1601.8  Rx         01AC  8  39 51 FF F3 BF FF 01 03 
   521)      1603.4  Rx         00EE  8  00 00 00 00 00 00 40 8F 
   522)      1608.4  Rx         0152  8  EF D9 CE 7C 3D D7 7E 9D 
   523)      1613.4  Rx         0151  8  92 16 FF 7F FC 03 00 7D 
   524)      1618.4  Rx         018D  8  00 10 7D B3 00 00 3B 01 
   525)      1621.7  Rx         01A0  8  B2 02 71 F2 3F 00 00 00 
   526)      1621.9  Rx         01AC  8  C3 52 FF F3 BF FF 01 03 
   527)      1623.4  Rx         03A3  8  17 9D 2F 42 42 3F FE CB 
   528)      1628.4  Rx         00A8  8  00 E0 FF D6 99 64 66 0E 
   529)      1631.6  Rx     1B000085  8  85 40 04 01 00 00 00 00 
   530)      1633.4  Rx         00EE  8  00 00 00 00 00 00 40 8F 
   531)      1638.4  Rx         0152  8  A7 DA CE 7C 3D D4 7E 9D 
   532)      1641.7  Rx         01A0  8  C2 03 71 F2 3F 00 00 00 
   533)      1641.9  Rx         01AC  8  09 53 FF F3 BF FF 01 03 
   534)      1643.3  Rx         03C0  4  9F 0D 23 00 
   535)      1648.4  Rx         00FD  8  05 E4 3F 00 00 00 00 00 
   536)      1653.4  Rx         0504  8  FF 06 00 00 26 11 14 11 
   537)      1658.4  Rx         0040  8  61 09 00 01 81 00 00 B6 
   538)      1661.4  Rx         01A0  8  CE 04 71 F2 3F 00 00 00 
   539)      1661.6  Rx         01AC  8  4C 54 FF F3 BF FF 01 03 
   540)      1661.9  Rx         02C0  8  45 05 39 3F 60 1C 08 50 
   541)      1663.4  Rx         0151  8  3A 18 FF 7F FC 03 00 7D 
   542)      1668.4  Rx         0040  8  F8 08 00 01 81 00 00 B4 
   543)      1673.4  Rx         00A8  8  00 E0 FF D6 99 64 78 0E 
   544)      1678.4  Rx         0151  8  17 15 FF FF FC 03 00 7D 
   545)      1681.3  Rx         01A0  8  FB 05 71 F2 3F 00 00 00 
   546)      1681.5  Rx         01AC  8  ED 55 FF F3 BF FF 01 03 
   547)      1684.8  Rx         01A0  8  FF 9F 0F C3 3F 00 00 00 
   548)      1688.4  Rx         01AC  8  E0 1F F0 03 42 E2 D1 02 
   549)      1693.4  Rx         018D  8  00 00 7D B3 00 00 3B 01 
   550)      1698.4  Rx         00A8  8  00 E0 FF D6 99 64 6E 0E 
   551)      1701.3  Rx         01A0  8  D9 06 71 F2 3F 00 00 00 
   552)      1701.5  Rx         01AC  8  3A 56 FF F3 BF FF 01 03 
   553)      1703.4  Rx         00EE  8  00 00 00 00 00 00 40 8F 
   554)      1708.4  Rx         0152  8  EF D9 CE 7C 3D D7 7E 9D 
   555)      1713.4  Rx         0151  8  92 16 FF 7F FC 03 00 7D 
   556)      1718.4  Rx         018D  8  00 10 7D B3 00 00 3B 01 
   557)      1721.2  Rx         01A0  8  31 07 71 F2 3F 00 00 00 
   558)      1721.4  Rx         01AC  8  A5 57 FF F3 BF FF 01 03 
   559)      1723.4  Rx         03A3  8  17 9D 2F 42 42 3F FE CB 
   560)      1728.4  Rx         00A8  8  00 E0 FF D6 99 64 66 0E 
   561)      1733.4  Rx         00EE  8  00 00 00 00 00 00 40 8F 
   562)      1738.4  Rx         0152  8  A7 DA CE 7C 3D D4 7E 9D 
   563)      1741.2  Rx         01A0  8  A0 08 71 F2 3F 00 00 00 
   564)      1741.5  Rx         01AC  8  4A 58 FF F3 BF FF 01 03 
   565)      1741.7  Rx         02C0  8  B8 06 39 3F 60 1C 08 50 
   566)      1743.3  Rx         03C0  4  9F 0D 23 00 
   567)      1747.7  Rx         0700  8  02 3E 80 FF FF FF FF FF 
   568)      1748.4  Rx         00FD  8  05 E4 3F 00 00 00 00 00 
   569)      1753.4  Rx         0504  8  FF 06 00 00 26 11 14 11 
   570)      1758.4  Rx         0040  8  61 09 00 01 81 00 00 B6 
   571)      1761.3  Rx         01A0  8  36 09 71 F2 3F 00 00 00 
   572)      1761.5  Rx         01AC  8  8B 59 FF F3 BF FF 01 03 
   573)      1763.4  Rx         0151  8  3A 18 FF 7F FC 03 00 7D 
   574)      1768.4  Rx         0040  8  F8 08 00 01 81 00 00 B4 
   575)      1773.4  Rx         00A8  8  00 E0 FF D6 99 64 78 0E 
   576)      1778.4  Rx         0151  8  17 15 FF FF FC 03 00 7D 
   577)      1781.3  Rx         01A0  8  14 0A 71 F2 3F 00 00 00 
   578)      1781.5  Rx         01AC  8  A7 5A FF F3 BF FF 01 03 
   579)      1783.4  Rx         01A0  8  FF 9F 0F C3 3F 00 00 00 
   580)      1788.4  Rx         01AC  8  E0 1F F0 03 42 E2 D1 02 
   581)      1793.4  Rx         018D  8  00 00 7D B3 00 00 3B 01 
   582)      1798.4  Rx         00A8  8  00 E0 FF D6 99 64 6E 0E 
   583)      1801.3  Rx         01A0  8  71 0B 71 F2 3F 00 00 00 
   584)      1801.6  Rx         01AC  8  0F 5B FF F3 BF FF 01 03 
   585)      1803.4  Rx         00EE  8  00 00 00 00 00 00 40 8F 
   586)      1808.4  Rx         0152  8  EF D9 CE 7C 3D D7 7E 9D 
   587)      1813.4  Rx         0151  8  92 16 FF 7F FC 03 00 7D 
   588)      1818.4  Rx         018D  8  00 10 7D B3 00 00 3B 01 
   589)      1821.3  Rx         01A0  8  AB 0C 71 F2 3F 00 00 00 
   590)      1821.6  Rx         01AC  8  49 5C FF F3 BF FF 01 03 
   591)      1821.8  Rx         02C0  8  18 07 39 3F 60 1C 08 50 
   592)      1823.4  Rx         03A3  8  17 9D 2F 42 42 3F FE CB 
   593)      1828.4  Rx         00A8  8  00 E0 FF D6 99 64 66 0E 
   594)      1831.4  Rx     1B000085  8  85 40 04 01 00 00 00 00 
   595)      1833.4  Rx         00EE  8  00 00 00 00 00 00 40 8F 
   596)      1838.4  Rx         0152  8  A7 DA CE 7C 3D D4 7E 9D 
   597)      1841.3  Rx         01A0  8  E9 0D 71 F2 3F 00 00 00 
   598)      1841.6  Rx         01AC  8  71 5D FF F3 BF FF 01 03 
   599)      1841.8  Rx     17F00085  8  20 85 00 00 00 00 01 80 
   600)      1842.1  Rx     1A5554A7  8  42 00 00 00 00 00 00 80 
   601)      1843.3  Rx         03C0  4  9F 0D 23 00 
   602)      1848.4  Rx         00FD  8  05 E4 3F 00 00 00 00 00 
   603)      1853.4  Rx         0504  8  FF 06 00 00 26 11 14 11 
   604)      1858.4  Rx         0040  8  61 09 00 01 81 00 00 B6 
   605)      1861.3  Rx         01A0  8  90 0E 71 F2 3F 00 00 00 
   606)      1861.6  Rx         01AC  8  16 5E FF F3 BF FF 01 03 
   607)      1863.4  Rx         0151  8  3A 18 FF 7F FC 03 00 7D 
   608)      1868.4  Rx         0040  8  F8 08 00 01 81 00 00 B4 
   609)      1873.4  Rx         00A8  8  00 E0 FF D6 99 64 78 0E 
   610)      1878.4  Rx         0151  8  17 15 FF FF FC 03 00 7D 
   611)      1881.3  Rx         01A0  8  83 0F 71 F2 3F 00 00 00 
   612)      1881.5  Rx         01AC  8  54 5F FF F3 BF FF 01 03 
   613)      1883.4  Rx         01A0  8  FF 9F 0F C3 3F 00 00 00 
   614)      1888.4  Rx         01AC  8  E0 1F F0 03 42 E2 D1 02 
   615)      1893.4  Rx         018D  8  00 00 7D B3 00 00 3B 01 
   616)      1898.4  Rx         00A8  8  00 E0 FF D6 99 64 6E 0E 
   617)      1901.2  Rx         01A0  8  74 00 71 F2 3F 00 00 00 
   618)      1901.5  Rx         01AC  8  F7 50 FF F3 BF FF 01 03 
   619)      1901.7  Rx         02C0  8  49 08 39 3F 60 1C 08 50 
   620)      1903.4  Rx         00EE  8  00 00 00 00 00 00 40 8F 
   621)      1908.4  Rx         0152  8  EF D9 CE 7C 3D D7 7E 9D 
   622)      1913.4  Rx         0151  8  92 16 FF 7F FC 03 00 7D 
   623)      1918.4  Rx         018D  8  00 10 7D B3 00 00 3B 01 
   624)      1921.3  Rx         01A0  8  C3 01 71 F2 3F 00 00 00 
   625)      1921.6  Rx         01AC  8  39 51 FF F3 BF FF 01 03 
   626)      1921.9  Rx     1A555510  8  82 30 35 32 37 11 00 00 
   627)      1923.4  Rx         03A3  8  17 9D 2F 42 42 3F FE CB 
   628)      1928.4  Rx         00A8  8  00 E0 FF D6 99 64 66 0E 
   629)      1933.4  Rx         00EE  8  00 00 00 00 00 00 40 8F 
   630)      1938.4  Rx         0152  8  A7 DA CE 7C 3D D4 7E 9D 
   631)      1941.3  Rx         01A0  8  B2 02 71 F2 3F 00 00 00 
   632)      1941.5  Rx         01AC  8  C3 52 FF F3 BF FF 01 03 
   633)      1943.3  Rx         03C0  4  9F 0D 23 00 
   634)      1948.4  Rx         00FD  8  05 E4 3F 00 00 00 00 00 
   635)      1953.4  Rx         0504  8  FF 06 00 00 26 11 14 11 
   636)      1958.4  Rx         0040  8  61 09 00 01 81 00 00 B6 
   637)      1961.2  Rx         01A0  8  C2 03 71 F2 3F 00 00 00 
   638)      1961.5  Rx         01AC  8  09 53 FF F3 BF FF 01 03 
   639)      1963.4  Rx         0151  8  3A 18 FF 7F FC 03 00 7D 
   640)      1968.4  Rx         0040  8  F8 08 00 01 81 00 00 B4 
   641)      1973.4  Rx         00A8  8  00 E0 FF D6 99 64 78 0E 
   642)      1978.4  Rx         0151  8  17 15 FF FF FC 03 00 7D 
   643)      1981.3  Rx         01A0  8  CE 04 71 F2 3F 00 00 00 
   644)      1981.6  Rx         01AC  8  4C 54 FF F3 BF FF 01 03 
   645)      1981.8  Rx         02C0  8  BC 09 39 3F 60 1C 08 50 
   646)      1983.4  Rx         01A0  8  FF 9F 0F C3 3F 00 00 00 
   647)      1988.4  Rx         01AC  8  E0 1F F0 03 42 E2 D1 02 
   648)      1994.8  Rx         018D  8  00 00 7D B3 00 00 3B 01 
   649)      1998.4  Rx         00A8  8  00 E0 FF D6 99 64 6E 0E 
   650)      2001.3  Rx         01A0  8  FB 05 71 F2 3F 00 00 00 
   651)      2001.6  Rx         01AC  8  ED 55 FF F3 BF FF 01 03 
   652)      2003.4  Rx         00EE  8  00 00 00 00 00 00 40 8F 
   653)      2008.4  Rx         0152  8  EF D9 CE 7C 3D D7 7E 9D 
   654)      2013.4  Rx         0151  8  92 16 FF 7F FC 03 00 7D 
   655)      2018.4  Rx         018D  8  00 10 7D B3 00 00 3B 01 
   656)      2021.3  Rx         01A0  8  D9 06 71 F2 3F 00 00 00 
   657)      2021.5  Rx         01AC  8  3A 56 FF F3 BF FF 01 03 
   658)      2023.4  Rx         03A3  8  17 9D 2F 42 42 3F FE CB 
   659)      2028.4  Rx         00A8  8  00 E0 FF D6 99 64 66 0E 
   660)      2031.4  Rx     1B000085  8  85 40 04 01 00 00 00 00 
   661)      2033.4  Rx         00EE  8  00 00 00 00 00 00 40 8F 
   662)      2038.4  Rx         0152  8  A7 DA CE 7C 3D D4 7E 9D 
   663)      2041.3  Rx         01A0  8  31 07 71 F2 3F 00 00 00 
   664)      2041.6  Rx         01AC  8  A5 57 FF F3 BF FF 01 03 
   665)      2043.3  Rx         03C0  4  9F 0D 23 00 
   666)      2048.4  Rx         00FD  8  05 E4 3F 00 00 00 00 00 
   667)      2053.4  Rx         0504  8  FF 06 00 00 26 11 14 11 
   668)      2058.4  Rx         0040  8  61 09 00 01 81 00 00 B6 
   669)      2061.3  Rx         01A0  8  A0 08 71 F2 3F 00 00 00 
   670)      2061.6  Rx         01AC  8  4A 58 FF F3 BF FF 01 03 
   671)      2061.8  Rx         02C0  8  08 0A 39 3F 60 1C 08 50 
   672)      2063.4  Rx         0151  8  3A 18 FF 7F FC 03 00 7D 
   673)      2068.4  Rx         0040  8  F8 08 00 01 81 00 00 B4 
   674)      2073.4  Rx         00A8  8  00 E0 FF D6 99 64 78 0E 
   675)      2078.4  Rx         0151  8  17 15 FF FF FC 03 00 7D 
   676)      2081.3  Rx         01A0  8  36 09 71 F2 3F 00 00 00 
   677)      2081.6  Rx         01AC  8  8B 59 FF F3 BF FF 01 03 
   678)      2083.4  Rx         01A0  8  FF 9F 0F C3 3F 00 00 00 
   679)      2088.4  Rx         01AC  8  E0 1F F0 03 42 E2 D1 02 
   680)      2093.4  Rx         018D  8  00 00 7D B3 00 00 3B 01 
   681)      2098.4  Rx         00A8  8  00 E0 FF D6 99 64 6E 0E 
   682)      2101.4  Rx         01A0  8  14 0A 71 F2 3F 00 00 00 
   683)      2101.6  Rx         01AC  8  A7 5A FF F3 BF FF 01 03 
   684)      2103.4  Rx         00EE  8  00 00 00 00 00 00 40 8F 
   685)      2108.4  Rx         0152  8  EF D9 CE 7C 3D D7 7E 9D 
   686)      2113.4  Rx         0151  8  92 16 FF 7F FC 03 00 7D 
   687)      2118.4  Rx         018D  8  00 10 7D B3 00 00 3B 01 
   688)      2121.3  Rx         01A0  8  71 0B 71 F2 3F 00 00 00 
   689)      2121.6  Rx         01AC  8  0F 5B FF F3 BF FF 01 03 
   690)      2123.4  Rx         03A3  8  17 9D 2F 42 42 3F FE CB 
   691)      2128.4  Rx         00A8  8  00 E0 FF D6 99 64 66 0E 
   692)      2133.4  Rx         00EE  8  00 00 00 00 00 00 40 8F 
   693)      2138.4  Rx         0152  8  A7 DA CE 7C 3D D4 7E 9D 
   694)      2141.3  Rx         01A0  8  AB 0C 71 F2 3F 00 00 00 
   695)      2141.5  Rx         01AC  8  49 5C FF F3 BF FF 01 03 
   696)      2141.8  Rx         02C0  8  4D 0B 39 3F 60 1C 08 50 
   697)      2143.3  Rx         03C0  4  9F 0D 23 00 
   698)      2148.4  Rx         00FD  8  05 E4 3F 00 00 00 00 00 
   699)      2153.4  Rx         0504  8  FF 06 00 00 26 11 14 11 
   700)      2158.4  Rx         0040  8  61 09 00 01 81 00 00 B6 
   701)      2161.4  Rx         01A0  8  E9 0D 71 F2 3F 00 00 00 
   702)      2161.6  Rx         01AC  8  71 5D FF F3 BF FF 01 03 
   703)      2163.4  Rx         0151  8  3A 18 FF 7F FC 03 00 7D 
   704)      2168.4  Rx         0040  8  F8 08 00 01 81 00 00 B4 
   705)      2173.4  Rx         00A8  8  00 E0 FF D6 99 64 78 0E 
   706)      2178.4  Rx         0151  8  17 15 FF FF FC 03 00 7D 
   707)      2181.3  Rx         01A0  8  90 0E 71 F2 3F 00 00 00 
   708)      2181.6  Rx         01AC  8  16 5E FF F3 BF FF 01 03 
   709)      2183.4  Rx         01A0  8  FF 9F 0F C3 3F 00 00 00 
   710)      2188.4  Rx         01AC  8  E0 1F F0 03 42 E2 D1 02 
   711)      2193.4  Rx         018D  8  00 00 7D B3 00 00 3B 01 
   712)      2198.4  Rx         00A8  8  00 E0 FF D6 99 64 6E 0E 
   713)      2201.3  Rx         01A0  8  83 0F 71 F2 3F 00 00 00 
   714)      2201.6  Rx         01AC  8  54 5F FF F3 BF FF 01 03 
   715)      2203.3  Rx         00EE  8  00 00 00 00 00 00 40 8F 
   716)      2208.3  Rx         0152  8  EF D9 CE 7C 3D D7 7E 9D 
   717)      2213.3  Rx         0151  8  92 16 FF 7F FC 03 00 7D 
   718)      2218.3  Rx         018D  8  00 10 7D B3 00 00 3B 01 
   719)      2221.3  Rx         01A0  8  74 00 71 F2 3F 00 00 00 
   720)      2221.5  Rx         01AC  8  F7 50 FF F3 BF FF 01 03 
   721)      2221.8  Rx         02C0  8  15 0C 39 3F 60 1C 08 50 
   722)      2223.3  Rx         03A3  8  17 9D 2F 42 42 3F FE CB 
   723)      2228.3  Rx         00A8  8  00 E0 FF D6 99 64 66 0E 
   724)      2231.4  Rx     1B000085  8  85 40 04 01 00 00 00 00 
   725)      2233.3  Rx         00EE  8  00 00 00 00 00 00 40 8F 
   726)      2238.3  Rx         0152  8  A7 DA CE 7C 3D D4 7E 9D 
   727)      2241.3  Rx         01A0  8  C3 01 71 F2 3F 00 00 00 
   728)      2241.5  Rx         01AC  8  39 51 FF F3 BF FF 01 03 
   729)      2243.2  Rx         03C0  4  9F 0D 23 00 
   730)      2248.3  Rx         00FD  8  05 E4 3F 00 00 00 00 00 
   731)      2253.3  Rx         0504  8  FF 06 00 00 26 11 14 11 
   732)      2258.3  Rx         0040  8  61 09 00 01 81 00 00 B6 
   733)      2259.7  Rx         0700  8  02 3E 80 FF FF FF FF FF 
   734)      2261.4  Rx         01A0  8  B2 02 71 F2 3F 00 00 00 
   735)      2261.6  Rx         01AC  8  C3 52 FF F3 BF FF 01 03 
   736)      2263.3  Rx         0151  8  3A 18 FF 7F FC 03 00 7D 
   737)      2268.3  Rx         0040  8  F8 08 00 01 81 00 00 B4 
   738)      2273.3  Rx         00A8  8  00 E0 FF D6 99 64 78 0E 
   739)      2278.3  Rx         0151  8  17 15 FF FF FC 03 00 7D 
   740)      2281.3  Rx         01A0  8  C2 03 71 F2 3F 00 00 00 
   741)      2281.6  Rx         01AC  8  09 53 FF F3 BF FF 01 03 
   742)      2283.3  Rx         01A0  8  FF 9F 0F C3 3F 00 00 00 
   743)      2288.3  Rx         01AC  8  E0 1F F0 03 42 E2 D1 02 
   744)      2293.3  Rx         018D  8  00 00 7D B3 00 00 3B 01 
   745)      2299.7  Rx         00A8  8  00 E0 FF D6 99 64 6E 0E 
   746)      2301.3  Rx         01A0  8  CE 04 71 F2 3F 00 00 00 
   747)      2301.5  Rx         01AC  8  4C 54 FF F3 BF FF 01 03 
   748)      2301.8  Rx         02C0  8  7D 0D 39 3F 60 1C 08 50 
   749)      2303.3  Rx         00EE  8  00 00 00 00 00 00 40 8F 
   750)      2308.3  Rx         0152  8  EF D9 CE 7C 3D D7 7E 9D 
   751)      2313.3  Rx         0151  8  92 16 FF 7F FC 03 00 7D 
   752)      2318.3  Rx         018D  8  00 10 7D B3 00 00 3B 01 
   753)      2321.2  Rx         01A0  8  FB 05 71 F2 3F 00 00 00 
   754)      2321.5  Rx         01AC  8  ED 55 FF F3 BF FF 01 03 
   755)      2323.3  Rx         03A3  8  17 9D 2F 42 42 3F FE CB 
   756)      2328.3  Rx         00A8  8  00 E0 FF D6 99 64 66 0E 
   757)      2333.3  Rx         00EE  8  00 00 00 00 00 00 40 8F 
   758)      2338.3  Rx         0152  8  A7 DA CE 7C 3D D4 7E 9D 
   759)      2341.3  Rx         01A0  8  D9 06 71 F2 3F 00 00 00 
   760)      2341.6  Rx         01AC  8  3A 56 FF F3 BF FF 01 03 
   761)      2341.9  Rx     17F00085  8  20 85 00 00 00 00 01 80 
   762)      2342.1  Rx     1A5554A7  8  42 00 00 00 00 00 00 80 
   763)      2343.2  Rx         03C0  4  9F 0D 23 00 
   764)      2348.3  Rx         00FD  8  05 E4 3F 00 00 00 00 00 
   765)      2353.3  Rx         0504  8  FF 06 00 00 26 11 14 11 
   766)      2358.3  Rx         0040  8  61 09 00 01 81 00 00 B6 
   767)      2361.3  Rx         01A0  8  31 07 71 F2 3F 00 00 00 
   768)      2361.5  Rx         01AC  8  A5 57 FF F3 BF FF 01 03 
   769)      2363.3  Rx         0151  8  3A 18 FF 7F FC 03 00 7D 
   770)      2368.3  Rx         0040  8  F8 08 00 01 81 00 00 B4 
   771)      2373.3  Rx         00A8  8  00 E0 FF D6 99 64 78 0E 
   772)      2378.3  Rx         0151  8  17 15 FF FF FC 03 00 7D 
   773)      2381.3  Rx         01A0  8  A0 08 71 F2 3F 00 00 00 
   774)      2381.5  Rx         01AC  8  4A 58 FF F3 BF FF 01 03 
   775)      2381.8  Rx         02C0  8  E3 0E 39 3F 60 1C 08 50 
   776)      2383.3  Rx         01A0  8  FF 9F 0F C3 3F 00 00 00 
   777)      2388.3  Rx         01AC  8  E0 1F F0 03 42 E2 D1 02 
   778)      2393.3  Rx         018D  8  00 00 7D B3 00 00 3B 01 
   779)      2398.3  Rx         00A8  8  00 E0 FF D6 99 64 6E 0E 
   780)      2401.3  Rx         01A0  8  36 09 71 F2 3F 00 00 00 
   781)      2401.6  Rx         01AC  8  8B 59 FF F3 BF FF 01 03 
   782)      2403.3  Rx         00EE  8  00 00 00 00 00 00 40 8F 
   783)      2408.3  Rx         0152  8  EF D9 CE 7C 3D D7 7E 9D 
   784)      2413.3  Rx         0151  8  92 16 FF 7F FC 03 00 7D 
   785)      2418.3  Rx         018D  8  00 10 7D B3 00 00 3B 01 
   786)      2421.3  Rx         01A0  8  14 0A 71 F2 3F 00 00 00 
   787)      2421.5  Rx         01AC  8  A7 5A FF F3 BF FF 01 03 
   788)      2423.3  Rx         03A3  8  17 9D 2F 42 42 3F FE CB 
   789)      2428.3  Rx         00A8  8  00 E0 FF D6 99 64 66 0E 
   790)      2431.4  Rx     1B000085  8  85 40 04 01 00 00 00 00 
   791)      2433.3  Rx         00EE  8  00 00 00 00 00 00 40 8F 
   792)      2438.3  Rx         0152  8  A7 DA CE 7C 3D D4 7E 9D 
   793)      2441.3  Rx         01A0  8  71 0B 71 F2 3F 00 00 00 
   794)      2441.5  Rx         01AC  8  0F 5B FF F3 BF FF 01 03 
   795)      2443.2  Rx         03C0  4  9F 0D 23 00 
   796)      2448.3  Rx         00FD  8  05 E4 3F 00 00 00 00 00 
   797)      2453.3  Rx         0504  8  FF 06 00 00 26 11 14 11 
   798)      2458.3  Rx         0040  8  61 09 00 01 81 00 00 B6 
   799)      2461.3  Rx         01A0  8  AB 0C 71 F2 3F 00 00 00 
   800)      2461.5  Rx         01AC  8  49 5C FF F3 BF FF 01 03 
   801)      2461.8  Rx         02C0  8  CF 0F 39 3F 60 1C 08 50 
   802)      2463.3  Rx         0151  8  3A 18 FF 7F FC 03 00 7D 
   803)      2468.3  Rx         0040  8  F8 08 00 01 81 00 00 B4 
   804)      2473.3  Rx         00A8  8  00 E0 FF D6 99 64 78 0E 
   805)      2478.3  Rx         0151  8  17 15 FF FF FC 03 00 7D 
   806)      2481.3  Rx         01A0  8  E9 0D 71 F2 3F 00 00 00 
   807)      2481.5  Rx         01AC  8  71 5D FF F3 BF FF 01 03 
   808)      2483.3  Rx         01A0  8  FF 9F 0F C3 3F 00 00 00 
   809)      2488.3  Rx         01AC  8  E0 1F F0 03 42 E2 D1 02 
   810)      2493.3  Rx         018D  8  00 00 7D B3 00 00 3B 01 
   811)      2498.3  Rx         00A8  8  00 E0 FF D6 99 64 6E 0E 
   812)      2501.3  Rx         01A0  8  90 0E 71 F2 3F 00 00 00 
   813)      2501.5  Rx         01AC  8  16 5E FF F3 BF FF 01 03 
   814)      2503.3  Rx         00EE  8  00 00 00 00 00 00 40 8F 
   815)      2508.3  Rx         0152  8  EF D9 CE 7C 3D D7 7E 9D 
   816)      2513.3  Rx         0151  8  92 16 FF 7F FC 03 00 7D 
   817)      2518.3  Rx         018D  8  00 10 7D B3 00 00 3B 01 
   818)      2521.3  Rx         01A0  8  83 0F 71 F2 3F 00 00 00 
   819)      2521.5  Rx         01AC  8  54 5F FF F3 BF FF 01 03 
   820)      2523.3  Rx         03A3  8  17 9D 2F 42 42 3F FE CB 
   821)      2528.3  Rx         00A8  8  00 E0 FF D6 99 64 66 0E 
   822)      2533.3  Rx         00EE  8  00 00 00 00 00 00 40 8F 
   823)      2538.3  Rx         0152  8  A7 DA CE 7C 3D D4 7E 9D 
   824)      2541.3  Rx         01A0  8  74 00 71 F2 3F 00 00 00 
   825)      2541.5  Rx         01AC  8  F7 50 FF F3 BF FF 01 03 
   826)      2541.8  Rx         02C0  8  57 00 39 3F 60 1C 08 50 
   827)      2543.2  Rx         03C0  4  9F 0D 23 00 
   828)      2548.3  Rx         00FD  8  05 E4 3F 00 00 00 00 00 
   829)      2553.3  Rx         0504  8  FF 06 00 00 26 11 14 11 
   830)      2558.3  Rx         0040  8  61 09 00 01 81 00 00 B6 
   831)      2561.2  Rx         01A0  8  C3 01 71 F2 3F 00 00 00 
   832)      2561.5  Rx         01AC  8  39 51 FF F3 BF FF 01 03 
   833)      2563.3  Rx         0151  8  3A 18 FF 7F FC 03 00 7D 
   834)      2568.3  Rx         0040  8  F8 08 00 01 81 00 00 B4 
   835)      2573.3  Rx         00A8  8  00 E0 FF D6 99 64 78 0E 
   836)      2578.3  Rx         0151  8  17 15 FF FF FC 03 00 7D 
   837)      2581.3  Rx         01A0  8  B2 02 71 F2 3F 00 00 00 
   838)      2581.6  Rx         01AC  8  C3 52 FF F3 BF FF 01 03 
   839)      2583.3  Rx         01A0  8  FF 9F 0F C3 3F 00 00 00 
   840)      2588.3  Rx         01AC  8  E0 1F F0 03 42 E2 D1 02 
   841)      2593.3  Rx         018D  8  00 00 7D B3 00 00 3B 01 
   842)      2598.3  Rx         00A8  8  00 E0 FF D6 99 64 6E 0E 
   843)      2601.3  Rx         01A0  8  C2 03 71 F2 3F 00 00 00 
   844)      2601.5  Rx         01AC  8  09 53 FF F3 BF FF 01 03 
   845)      2603.3  Rx         00EE  8  00 00 00 00 00 00 40 8F 
   846)      2609.7  Rx         0152  8  EF D9 CE 7C 3D D7 7E 9D 
   847)      2613.3  Rx         0151  8  92 16 FF 7F FC 03 00 7D 
   848)      2618.3  Rx         018D  8  00 10 7D B3 00 00 3B 01 
   849)      2621.3  Rx         01A0  8  CE 04 71 F2 3F 00 00 00 
   850)      2621.5  Rx         01AC  8  4C 54 FF F3 BF FF 01 03 
   851)      2621.7  Rx         02C0  8  8F 01 39 3F 60 1C 08 50 
   852)      2623.3  Rx         03A3  8  17 9D 2F 42 42 3F FE CB 
   853)      2628.3  Rx         00A8  8  00 E0 FF D6 99 64 66 0E 
   854)      2631.3  Rx     1B000085  8  85 40 04 01 00 00 00 00 
   855)      2633.3  Rx         00EE  8  00 00 00 00 00 00 40 8F 
   856)      2638.3  Rx         0152  8  A7 DA CE 7C 3D D4 7E 9D 
   857)      2641.3  Rx         01A0  8  FB 05 71 F2 3F 00 00 00 
   858)      2641.5  Rx         01AC  8  ED 55 FF F3 BF FF 01 03 
   859)      2643.2  Rx         03C0  4  9F 0D 23 00 
   860)      2648.3  Rx         00FD  8  05 E4 3F 00 00 00 00 00 
   861)      2653.3  Rx         0504  8  FF 06 00 00 26 11 14 11 
   862)      2658.3  Rx         0040  8  61 09 00 01 81 00 00 B6 
   863)      2661.2  Rx         01A0  8  D9 06 71 F2 3F 00 00 00 
   864)      2661.4  Rx         01AC  8  3A 56 FF F3 BF FF 01 03 
   865)      2663.3  Rx         0151  8  3A 18 FF 7F FC 03 00 7D 
   866)      2668.3  Rx         0040  8  F8 08 00 01 81 00 00 B4 
   867)      2673.3  Rx         00A8  8  00 E0 FF D6 99 64 78 0E 
   868)      2678.3  Rx         0151  8  17 15 FF FF FC 03 00 7D 
   869)      2681.3  Rx         01A0  8  31 07 71 F2 3F 00 00 00 
   870)      2681.5  Rx         01AC  8  A5 57 FF F3 BF FF 01 03 
   871)      2683.3  Rx         01A0  8  FF 9F 0F C3 3F 00 00 00 
   872)      2688.3  Rx         01AC  8  E0 1F F0 03 42 E2 D1 02 
   873)      2693.3  Rx         018D  8  00 00 7D B3 00 00 3B 01 
   874)      2698.3  Rx         00A8  8  00 E0 FF D6 99 64 6E 0E 
   875)      2701.3  Rx         01A0  8  A0 08 71 F2 3F 00 00 00 
   876)      2701.5  Rx         01AC  8  4A 58 FF F3 BF FF 01 03 
   877)      2701.8  Rx         02C0  8  70 02 39 3F 60 1C 08 50 
   878)      2703.3  Rx         00EE  8  00 00 00 00 00 00 40 8F 
   879)      2708.3  Rx         0152  8  EF D9 CE 7C 3D D7 7E 9D 
   880)      2713.3  Rx         0151  8  92 16 FF 7F FC 03 00 7D 
   881)      2718.3  Rx         018D  8  00 10 7D B3 00 00 3B 01 
   882)      2721.3  Rx         01A0  8  36 09 71 F2 3F 00 00 00 
   883)      2721.5  Rx         01AC  8  8B 59 FF F3 BF FF 01 03 
   884)      2723.3  Rx         03A3  8  17 9D 2F 42 42 3F FE CB 
   885)      2728.3  Rx         00A8  8  00 E0 FF D6 99 64 66 0E 
   886)      2733.3  Rx         00EE  8  00 00 00 00 00 00 40 8F 
   887)      2738.3  Rx         0152  8  A7 DA CE 7C 3D D4 7E 9D 
   888)      2741.3  Rx         01A0  8  14 0A 71 F2 3F 00 00 00 
   889)      2741.5  Rx         01AC  8  A7 5A FF F3 BF FF 01 03 
   890)      2743.2  Rx         03C0  4  9F 0D 23 00 
   891)      2748.3  Rx         00FD  8  05 E4 3F 00 00 00 00 00 
   892)      2753.3  Rx         0504  8  FF 06 00 00 26 11 14 11 
   893)      2758.3  Rx         0040  8  61 09 00 01 81 00 00 B6 
   894)      2761.3  Rx         01A0  8  71 0B 71 F2 3F 00 00 00 
   895)      2761.5  Rx         01AC  8  0F 5B FF F3 BF FF 01 03 
   896)      2763.3  Rx         0151  8  3A 18 FF 7F FC 03 00 7D 
   897)      2768.3  Rx         0040  8  F8 08 00 01 81 00 00 B4 
   898)      2771.6  Rx         0700  8  02 3E 80 FF FF FF FF FF 
   899)      2773.3  Rx         00A8  8  00 E0 FF D6 99 64 78 0E 
   900)      2778.3  Rx         0151  8  17 15 FF FF FC 03 00 7D 
   901)      2781.3  Rx         01A0  8  AB 0C 71 F2 3F 00 00 00 
   902)      2781.5  Rx         01AC  8  49 5C FF F3 BF FF 01 03 
   903)      2781.7  Rx         02C0  8  C8 03 39 3F 60 1C 08 50 
   904)      2783.3  Rx         01A0  8  FF 9F 0F C3 3F 00 00 00 
   905)      2788.3  Rx         01AC  8  E0 1F F0 03 42 E2 D1 02 
   906)      2793.3  Rx         018D  8  00 00 7D B3 00 00 3B 01 
   907)      2798.3  Rx         00A8  8  00 E0 FF D6 99 64 6E 0E 
   908)      2801.3  Rx         01A0  8  E9 0D 71 F2 3F 00 00 00 
   909)      2801.5  Rx         01AC  8  71 5D FF F3 BF FF 01 03 
   910)      2803.3  Rx         00EE  8  00 00 00 00 00 00 40 8F 
   911)      2808.3  Rx         0152  8  EF D9 CE 7C 3D D7 7E 9D 
   912)      2813.3  Rx         0151  8  92 16 FF 7F FC 03 00 7D 
   913)      2818.3  Rx         018D  8  00 10 7D B3 00 00 3B 01 
   914)      2821.3  Rx         01A0  8  90 0E 71 F2 3F 00 00 00 
   915)      2821.5  Rx         01AC  8  16 5E FF F3 BF FF 01 03 
   916)      2823.3  Rx         03A3  8  17 9D 2F 42 42 3F FE CB 
   917)      2828.3  Rx         00A8  8  00 E0 FF D6 99 64 66 0E 
   918)      2831.3  Rx     1B000085  8  85 40 04 01 00 00 00 00 
   919)      2833.3  Rx         00EE  8  00 00 00 00 00 00 40 8F 
   920)      2838.3  Rx         0152  8  A7 DA CE 7C 3D D4 7E 9D 
   921)      2841.3  Rx         01A0  8  83 0F 71 F2 3F 00 00 00 
   922)      2841.5  Rx         01AC  8  54 5F FF F3 BF FF 01 03 
   923)      2841.8  Rx     17F00085  8  20 85 00 00 00 00 01 80 
   924)      2842.1  Rx     1A5554A7  8  42 00 00 00 00 00 00 80 
   925)      2843.2  Rx         03C0  4  9F 0D 23 00 
   926)      2848.3  Rx         00FD  8  05 E4 3F 00 00 00 00 00 
   927)      2853.3  Rx         0504  8  FF 06 00 00 26 11 14 11 
   928)      2858.3  Rx         0040  8  61 09 00 01 81 00 00 B6 
   929)      2861.2  Rx         01A0  8  74 00 71 F2 3F 00 00 00 
   930)      2861.5  Rx         01AC  8  F7 50 FF F3 BF FF 01 03 
   931)      2861.7  Rx         02C0  8  51 04 39 3F 60 1C 08 50 
   932)      2863.3  Rx         0151  8  3A 18 FF 7F FC 03 00 7D 
   933)      2868.3  Rx         0040  8  F8 08 00 01 81 00 00 B4 
   934)      2873.3  Rx         00A8  8  00 E0 FF D6 99 64 78 0E 
   935)      2878.3  Rx         0151  8  17 15 FF FF FC 03 00 7D 
   936)      2881.2  Rx         01A0  8  C3 01 71 F2 3F 00 00 00 
   937)      2881.4  Rx         01AC  8  39 51 FF F3 BF FF 01 03 
   938)      2881.7  Rx     1A555510  8  83 30 30 30 30 EC 00 00 
   939)      2883.3  Rx         01A0  8  FF 9F 0F C3 3F 00 00 00 
   940)      2888.3  Rx         01AC  8  E0 1F F0 03 42 E2 D1 02 
   941)      2893.3  Rx         018D  8  00 00 7D B3 00 00 3B 01 
   942)      2898.3  Rx         00A8  8  00 E0 FF D6 99 64 6E 0E 
   943)      2901.3  Rx         01A0  8  B2 02 71 F2 3F 00 00 00 
   944)      2901.5  Rx         01AC  8  C3 52 FF F3 BF FF 01 03 
   945)      2903.3  Rx         00EE  8  00 00 00 00 00 00 40 8F 
   946)      2908.3  Rx         0152  8  EF D9 CE 7C 3D D7 7E 9D 
   947)      2913.3  Rx         0151  8  92 16 FF 7F FC 03 00 7D 
   948)      2919.7  Rx         018D  8  00 10 7D B3 00 00 3B 01 
   949)      2921.3  Rx         01A0  8  C2 03 71 F2 3F 00 00 00 
   950)      2921.5  Rx         01AC  8  09 53 FF F3 BF FF 01 03 
   951)      2923.3  Rx         03A3  8  17 9D 2F 42 42 3F FE CB 
   952)      2928.3  Rx         00A8  8  00 E0 FF D6 99 64 66 0E 
   953)      2933.3  Rx         00EE  8  00 00 00 00 00 00 40 8F 
   954)      2938.3  Rx         0152  8  A7 DA CE 7C 3D D4 7E 9D 
   955)      2941.2  Rx         01A0  8  CE 04 71 F2 3F 00 00 00 
   956)      2941.5  Rx         01AC  8  4C 54 FF F3 BF FF 01 03 
   957)      2941.7  Rx         02C0  8  45 05 39 3F 60 1C 08 50 
   958)      2943.2  Rx         03C0  4  9F 0D 23 00 
   959)      2948.3  Rx         00FD  8  05 E4 3F 00 00 00 00 00 
   960)      2953.3  Rx         0504  8  FF 06 00 00 26 11 14 11 
   961)      2958.3  Rx         0040  8  61 09 00 01 81 00 00 B6 
   962)      2961.3  Rx         01A0  8  FB 05 71 F2 3F 00 00 00 
   963)      2961.5  Rx         01AC  8  ED 55 FF F3 BF FF 01 03 
   964)      2963.3  Rx         0151  8  3A 18 FF 7F FC 03 00 7D 
   965)      2968.3  Rx         0040  8  F8 08 00 01 81 00 00 B4 
   966)      2973.3  Rx         00A8  8  00 E0 FF D6 99 64 78 0E 
   967)      2978.3  Rx         0151  8  17 15 FF FF FC 03 00 7D 
   968)      2981.3  Rx         01A0  8  D9 06 71 F2 3F 00 00 00 
   969)      2981.5  Rx         01AC  8  3A 56 FF F3 BF FF 01 03 
   970)      2983.3  Rx         01A0  8  FF 9F 0F C3 3F 00 00 00 
   971)      2988.3  Rx         01AC  8  E0 1F F0 03 42 E2 D1 02 
   972)      2993.3  Rx         018D  8  00 00 7D B3 00 00 3B 01 
   973)      2998.3  Rx         00A8  8  00 E0 FF D6 99 64 6E 0E 
   974)      3001.3  Rx         01A0  8  31 07 71 F2 3F 00 00 00 
   975)      3001.5  Rx         01AC  8  A5 57 FF F3 BF FF 01 03 
   976)      3003.3  Rx         00EE  8  00 00 00 00 00 00 40 8F 
   977)      3008.3  Rx         0152  8  EF D9 CE 7C 3D D7 7E 9D 
   978)      3013.3  Rx         0151  8  92 16 FF 7F FC 03 00 7D 
   979)      3018.3  Rx         018D  8  00 10 7D B3 00 00 3B 01 
   980)      3021.2  Rx         01A0  8  A0 08 71 F2 3F 00 00 00 
   981)      3021.5  Rx         01AC  8  4A 58 FF F3 BF FF 01 03 
   982)      3021.7  Rx         02C0  8  B8 06 39 3F 60 1C 08 50 
   983)      3023.3  Rx         03A3  8  17 9D 2F 42 42 3F FE CB 
   984)      3028.3  Rx         00A8  8  00 E0 FF D6 99 64 66 0E 
   985)      3031.4  Rx     1B000085  8  85 40 04 01 00 00 00 00 
   986)      3033.3  Rx         00EE  8  00 00 00 00 00 00 40 8F 
   987)      3038.3  Rx         0152  8  A7 DA CE 7C 3D D4 7E 9D 
   988)      3041.2  Rx         01A0  8  36 09 71 F2 3F 00 00 00 
   989)      3041.5  Rx         01AC  8  8B 59 FF F3 BF FF 01 03 
   990)      3043.2  Rx         03C0  4  9F 0D 23 00 
   991)      3048.3  Rx         00FD  8  05 E4 3F 00 00 00 00 00 
   992)      3053.3  Rx         0504  8  FF 06 00 00 26 11 14 11 
   993)      3058.3  Rx         0040  8  61 09 00 01 81 00 00 B6 
   994)      3061.3  Rx         01A0  8  14 0A 71 F2 3F 00 00 00 
   995)      3061.5  Rx         01AC  8  A7 5A FF F3 BF FF 01 03 
   996)      3063.3  Rx         0151  8  3A 18 FF 7F FC 03 00 7D 
   997)      3068.3  Rx         0040  8  F8 08 00 01 81 00 00 B4 
   998)      3073.3  Rx         00A8  8  00 E0 FF D6 99 64 78 0E 
   999)      3078.3  Rx         0151  8  17 15 FF FF FC 03 00 7D 
  1000)      3081.3  Rx         01A0  8  71 0B 71 F2 3F 00 00 00 
  1001)      3081.5  Rx         01AC  8  0F 5B FF F3 BF FF 01 03 
  1002)      3083.3  Rx         01A0  8  FF 9F 0F C3 3F 00 00 00 
  1003)      3088.3  Rx         01AC  8  E0 1F F0 03 42 E2 D1 02 
  1004)      3093.3  Rx         018D  8  00 00 7D B3 00 00 3B 01 
  1005)      3098.3  Rx         00A8  8  00 E0 FF D6 99 64 6E 0E 
  1006)      3101.2  Rx         01A0  8  AB 0C 71 F2 3F 00 00 00 
  1007)      3101.4  Rx         01AC  8  49 5C FF F3 BF FF 01 03 
  1008)      3101.7  Rx         02C0  8  18 07 39 3F 60 1C 08 50 
  1009)      3103.3  Rx         00EE  8  00 00 00 00 00 00 40 8F 
  1010)      3108.3  Rx         0152  8  EF D9 CE 7C 3D D7 7E 9D 
  1011)      3113.3  Rx         0151  8  92 16 FF 7F FC 03 00 7D 
  1012)      3118.3  Rx         018D  8  00 10 7D B3 00 00 3B 01 
  1013)      3121.3  Rx         01A0  8  E9 0D 71 F2 3F 00 00 00 
  1014)      3121.5  Rx         01AC  8  71 5D FF F3 BF FF 01 03 
  1015)      3123.3  Rx         03A3  8  17 9D 2F 42 42 3F FE CB 
  1016)      3128.3  Rx         00A8  8  00 E0 FF D6 99 64 66 0E 
  1017)      3133.3  Rx         00EE  8  00 00 00 00 00 00 40 8F 
  1018)      3138.3  Rx         0152  8  A7 DA CE 7C 3D D4 7E 9D 
  1019)      3141.3  Rx         01A0  8  90 0E 71 F2 3F 00 00 00 
  1020)      3141.5  Rx         01AC  8  16 5E FF F3 BF FF 01 03 
  1021)      3143.2  Rx         03C0  4  9F 0D 23 00 
  1022)      3148.3  Rx         00FD  8  05 E4 3F 00 00 00 00 00 
  1023)      3153.3  Rx         0504  8  FF 06 00 00 26 11 14 11 
  1024)      3158.3  Rx         0040  8  61 09 00 01 81 00 00 B6 
  1025)      3161.2  Rx         01A0  8  83 0F 71 F2 3F 00 00 00 
  1026)      3161.5  Rx         01AC  8  54 5F FF F3 BF FF 01 03 
  1027)      3163.3  Rx         0151  8  3A 18 FF 7F FC 03 00 7D 
  1028)      3168.3  Rx         0040  8  F8 08 00 01 81 00 00 B4 
  1029)      3173.3  Rx         00A8  8  00 E0 FF D6 99 64 78 0E 
  1030)      3178.3  Rx         0151  8  17 15 FF FF FC 03 00 7D 
  1031)      3181.3  Rx         01A0  8  74 00 71 F2 3F 00 00 00 
  1032)      3181.5  Rx         01AC  8  F7 50 FF F3 BF FF 01 03 
  1033)      3181.8  Rx         02C0  8  49 08 39 3F 60 1C 08 50 
  1034)      3183.3  Rx         01A0  8  FF 9F 0F C3 3F 00 00 00 
  1035)      3188.3  Rx         01AC  8  E0 1F F0 03 42 E2 D1 02 
  1036)      3193.3  Rx         018D  8  00 00 7D B3 00 00 3B 01 
  1037)      3198.3  Rx         00A8  8  00 E0 FF D6 99 64 6E 0E 
  1038)      3201.3  Rx         01A0  8  C3 01 71 F2 3F 00 00 00 
  1039)      3201.5  Rx         01AC  8  39 51 FF F3 BF FF 01 03 
  1040)      3203.3  Rx         00EE  8  00 00 00 00 00 00 40 8F 
  1041)      3208.2  Rx         0152  8  EF D9 CE 7C 3D D7 7E 9D 
  1042)      3213.3  Rx         0151  8  92 16 FF 7F FC 03 00 7D 
  1043)      3218.3  Rx         018D  8  00 10 7D B3 00 00 3B 01 
  1044)      3221.2  Rx         01A0  8  B2 02 71 F2 3F 00 00 00 
  1045)      3221.5  Rx         01AC  8  C3 52 FF F3 BF FF 01 03 
  1046)      3224.7  Rx         03A3  8  17 9D 2F 42 42 3F FE CB 
  1047)      3228.3  Rx         00A8  8  00 E0 FF D6 99 64 66 0E 
  1048)      3231.3  Rx     1B000085  8  85 40 04 01 00 00 00 00 
  1049)      3233.3  Rx         00EE  8  00 00 00 00 00 00 40 8F 
  1050)      3238.3  Rx         0152  8  A7 DA CE 7C 3D D4 7E 9D 
  1051)      3241.3  Rx         01A0  8  C2 03 71 F2 3F 00 00 00 
  1052)      3241.5  Rx         01AC  8  09 53 FF F3 BF FF 01 03 
  1053)      3243.1  Rx         03C0  4  9F 0D 23 00 
  1054)      3248.3  Rx         00FD  8  05 E4 3F 00 00 00 00 00 
  1055)      3253.3  Rx         0504  8  FF 06 00 00 26 11 14 11 
  1056)      3258.3  Rx         0040  8  61 09 00 01 81 00 00 B6 
  1057)      3261.2  Rx         01A0  8  CE 04 71 F2 3F 00 00 00 
  1058)      3261.5  Rx         01AC  8  4C 54 FF F3 BF FF 01 03 
  1059)      3261.7  Rx         02C0  8  BC 09 39 3F 60 1C 08 50 
  1060)      3263.3  Rx         0151  8  3A 18 FF 7F FC 03 00 7D 
  1061)      3268.3  Rx         0040  8  F8 08 00 01 81 00 00 B4 
  1062)      3273.3  Rx         00A8  8  00 E0 FF D6 99 64 78 0E 
  1063)      3278.3  Rx         0151  8  17 15 FF FF FC 03 00 7D 
  1064)      3281.3  Rx         01A0  8  FB 05 71 F2 3F 00 00 00 
  1065)      3281.5  Rx         01AC  8  ED 55 FF F3 BF FF 01 03 
  1066)      3283.3  Rx         01A0  8  FF 9F 0F C3 3F 00 00 00 
  1067)      3283.7  Rx         0700  8  02 3E 80 FF FF FF FF FF 
  1068)      3288.2  Rx         01AC  8  E0 1F F0 03 42 E2 D1 02 
  1069)      3293.3  Rx         018D  8  00 00 7D B3 00 00 3B 01 
  1070)      3298.3  Rx         00A8  8  00 E0 FF D6 99 64 6E 0E 
  1071)      3301.3  Rx         01A0  8  D9 06 71 F2 3F 00 00 00 
  1072)      3301.5  Rx         01AC  8  3A 56 FF F3 BF FF 01 03 
  1073)      3303.3  Rx         00EE  8  00 00 00 00 00 00 40 8F 
  1074)      3308.3  Rx         0152  8  EF D9 CE 7C 3D D7 7E 9D 
  1075)      3313.3  Rx         0151  8  92 16 FF 7F FC 03 00 7D 
  1076)      3318.3  Rx         018D  8  00 10 7D B3 00 00 3B 01 
  1077)      3321.2  Rx         01A0  8  31 07 71 F2 3F 00 00 00 
  1078)      3321.4  Rx         01AC  8  A5 57 FF F3 BF FF 01 03 
  1079)      3323.3  Rx         03A3  8  17 9D 2F 42 42 3F FE CB 
  1080)      3328.3  Rx         00A8  8  00 E0 FF D6 99 64 66 0E 
  1081)      3333.3  Rx         00EE  8  00 00 00 00 00 00 40 8F 
  1082)      3338.3  Rx         0152  8  A7 DA CE 7C 3D D4 7E 9D 
  1083)      3341.2  Rx         01A0  8  A0 08 71 F2 3F 00 00 00 
  1084)      3341.5  Rx         01AC  8  4A 58 FF F3 BF FF 01 03 
  1085)      3341.7  Rx         02C0  8  08 0A 39 3F 60 1C 08 50 
  1086)      3342.0  Rx     17F00085  8  20 85 00 00 00 00 01 80 
  1087)      3342.3  Rx     1A5554A7  8  42 00 00 00 00 00 00 80 
  1088)      3343.1  Rx         03C0  4  9F 0D 23 00 
  1089)      3348.3  Rx         00FD  8  05 E4 3F 00 00 00 00 00 
  1090)      3353.3  Rx         0504  8  FF 06 00 00 26 11 14 11 
  1091)      3358.3  Rx         0040  8  61 09 00 01 81 00 00 B6 
  1092)      3361.3  Rx         01A0  8  36 09 71 F2 3F 00 00 00 
  1093)      3361.5  Rx         01AC  8  8B 59 FF F3 BF FF 01 03 
  1094)      3363.3  Rx         0151  8  3A 18 FF 7F FC 03 00 7D 
  1095)      3368.3  Rx         0040  8  F8 08 00 01 81 00 00 B4 
  1096)      3373.3  Rx         00A8  8  00 E0 FF D6 99 64 78 0E 
  1097)      3378.3  Rx         0151  8  17 15 FF FF FC 03 00 7D 
  1098)      3381.3  Rx         01A0  8  14 0A 71 F2 3F 00 00 00 
  1099)      3381.5  Rx         01AC  8  A7 5A FF F3 BF FF 01 03 
  1100)      3383.3  Rx         01A0  8  FF 9F 0F C3 3F 00 00 00 
  1101)      3388.3  Rx         01AC  8  E0 1F F0 03 42 E2 D1 02 
  1102)      3393.3  Rx         018D  8  00 00 7D B3 00 00 3B 01 
  1103)      3398.3  Rx         00A8  8  00 E0 FF D6 99 64 6E 0E 
  1104)      3401.2  Rx         01A0  8  71 0B 71 F2 3F 00 00 00 
  1105)      3401.4  Rx         01AC  8  0F 5B FF F3 BF FF 01 03 
  1106)      3403.3  Rx         00EE  8  00 00 00 00 00 00 40 8F 
  1107)      3408.3  Rx         0152  8  EF D9 CE 7C 3D D7 7E 9D 
  1108)      3409.3  Rx     17FC0085  8  03 19 02 0C FF FF FF FF 
  1109)      3413.3  Rx         0151  8  92 16 FF 7F FC 03 00 7D 
  1110)      3418.3  Rx         018D  8  00 10 7D B3 00 00 3B 01 
  1111)      3421.4  Rx         01A0  8  AB 0C 71 F2 3F 00 00 00 
  1112)      3421.6  Rx         01AC  8  49 5C FF F3 BF FF 01 03 
  1113)      3421.8  Rx         02C0  8  4D 0B 39 3F 60 1C 08 50 
  1114)      3423.2  Rx         03A3  8  17 9D 2F 42 42 3F FE CB 
  1115)      3428.3  Rx         00A8  8  00 E0 FF D6 99 64 66 0E 
  1116)      3431.4  Rx     1B000085  8  85 40 04 01 00 00 00 00 
  1117)      3433.3  Rx         00EE  8  00 00 00 00 00 00 40 8F 
  1118)      3438.3  Rx         0152  8  A7 DA CE 7C 3D D4 7E 9D 
  1119)      3440.2  Rx     17FE0085  8  03 7F 19 78 AA AA AA AA 
  1120)      3441.5  Rx         01A0  8  E9 0D 71 F2 3F 00 00 00 
  1121)      3441.7  Rx         01AC  8  71 5D FF F3 BF FF 01 03 
  1122)      3443.1  Rx         03C0  4  9F 0D 23 00 
  1123)      3448.3  Rx         00FD  8  05 E4 3F 00 00 00 00 00 
  1124)      3453.3  Rx         0504  8  FF 06 00 00 26 11 14 11 
  1125)      3458.3  Rx         0040  8  61 09 00 01 81 00 00 B6 
  1126)      3461.4  Rx         01A0  8  90 0E 71 F2 3F 00 00 00 
  1127)      3461.6  Rx         01AC  8  16 5E FF F3 BF FF 01 03 
  1128)      3463.3  Rx         0151  8  3A 18 FF 7F FC 03 00 7D 
  1129)      3468.3  Rx         0040  8  F8 08 00 01 81 00 00 B4 
  1130)      3470.1  Rx     17FE0085  8  10 23 59 02 FF 00 6D 3F 
  1131)      3470.9  Rx     17FC0085  8  30 00 00 FF FF FF FF FF 
  1132)      3471.2  Rx     17FE0085  8  21 2F 00 01 03 2F 00 72 
  1133)      3471.5  Rx     17FE0085  8  22 56 2F 00 73 56 2F 00 
  1134)      3471.8  Rx     17FE0085  8  23 01 05 2F 00 01 07 2F 
  1135)      3472.1  Rx     17FE0085  8  24 00 01 57 2F 00 4B 3D 
  1136)      3472.4  Rx     17FE0085  8  25 2F AA AA AA AA AA AA 
  1137)      3473.3  Rx         00A8  8  00 E0 FF D6 99 64 78 0E 
  1138)      3478.3  Rx         0151  8  17 15 FF FF FC 03 00 7D 
  1139)      3481.3  Rx         01A0  8  83 0F 71 F2 3F 00 00 00 
  1140)      3481.5  Rx         01AC  8  54 5F FF F3 BF FF 01 03 
  1141)      3483.3  Rx         01A0  8  FF 9F 0F C3 3F 00 00 00 
  1142)      3488.3  Rx         01AC  8  E0 1F F0 03 42 E2 D1 02 
  1143)      3493.3  Rx         018D  8  00 00 7D B3 00 00 3B 01 
  1144)      3498.3  Rx         00A8  8  00 E0 FF D6 99 64 6E 0E 
  1145)      3501.3  Rx         01A0  8  74 00 71 F2 3F 00 00 00 
  1146)      3501.5  Rx         01AC  8  F7 50 FF F3 BF FF 01 03 
  1147)      3501.7  Rx         02C0  8  15 0C 39 3F 60 1C 08 50 
  1148)      3503.3  Rx         00EE  8  00 00 00 00 00 00 40 8F 
  1149)      3508.3  Rx         0152  8  EF D9 CE 7C 3D D7 7E 9D 
  1150)      3513.3  Rx         0151  8  92 16 FF 7F FC 03 00 7D 
  1151)      3518.3  Rx         018D  8  00 10 7D B3 00 00 3B 01 
  1152)      3521.2  Rx         01A0  8  C3 01 71 F2 3F 00 00 00 
  1153)      3521.5  Rx         01AC  8  39 51 FF F3 BF FF 01 03 
  1154)      3523.3  Rx         03A3  8  17 9D 2F 42 42 3F FE CB 
  1155)      3528.3  Rx         00A8  8  00 E0 FF D6 99 64 66 0E 
  1156)      3534.7  Rx         00EE  8  00 00 00 00 00 00 40 8F 
  1157)      3538.3  Rx         0152  8  A7 DA CE 7C 3D D4 7E 9D 
  1158)      3541.3  Rx         01A0  8  B2 02 71 F2 3F 00 00 00 
  1159)      3541.5  Rx         01AC  8  C3 52 FF F3 BF FF 01 03 
  1160)      3543.1  Rx         03C0  4  9F 0D 23 00 
  1161)      3548.3  Rx         00FD  8  05 E4 3F 00 00 00 00 00 
  1162)      3553.3  Rx         0504  8  FF 06 00 00 26 11 14 11 
  1163)      3558.3  Rx         0040  8  61 09 00 01 81 00 00 B6 
  1164)      3561.3  Rx         01A0  8  C2 03 71 F2 3F 00 00 00 
  1165)      3561.5  Rx         01AC  8  09 53 FF F3 BF FF 01 03 
  1166)      3563.3  Rx         0151  8  3A 18 FF 7F FC 03 00 7D 
  1167)      3568.3  Rx         0040  8  F8 08 00 01 81 00 00 B4 
  1168)      3573.3  Rx         00A8  8  00 E0 FF D6 99 64 78 0E 
  1169)      3578.3  Rx         0151  8  17 15 FF FF FC 03 00 7D 
  1170)      3581.3  Rx         01A0  8  CE 04 71 F2 3F 00 00 00 
  1171)      3581.5  Rx         01AC  8  4C 54 FF F3 BF FF 01 03 
  1172)      3581.7  Rx         02C0  8  7D 0D 39 3F 60 1C 08 50 
  1173)      3583.3  Rx         01A0  8  FF 9F 0F C3 3F 00 00 00 
  1174)      3588.3  Rx         01AC  8  E0 1F F0 03 42 E2 D1 02 
  1175)      3593.3  Rx         018D  8  00 00 7D B3 00 00 3B 01 
  1176)      3598.3  Rx         00A8  8  00 E0 FF D6 99 64 6E 0E 
  1177)      3601.3  Rx         01A0  8  FB 05 71 F2 3F 00 00 00 
  1178)      3601.5  Rx         01AC  8  ED 55 FF F3 BF FF 01 03 
  1179)      3603.3  Rx         00EE  8  00 00 00 00 00 00 40 8F 
  1180)      3608.3  Rx         0152  8  EF D9 CE 7C 3D D7 7E 9D 
  1181)      3613.3  Rx         0151  8  92 16 FF 7F FC 03 00 7D 
  1182)      3618.3  Rx         018D  8  00 10 7D B3 00 00 3B 01 
  1183)      3621.3  Rx         01A0  8  D9 06 71 F2 3F 00 00 00 
  1184)      3621.5  Rx         01AC  8  3A 56 FF F3 BF FF 01 03 
  1185)      3623.3  Rx         03A3  8  17 9D 2F 42 42 3F FE CB 
  1186)      3628.3  Rx         00A8  8  00 E0 FF D6 99 64 66 0E 
  1187)      3631.3  Rx     1B000085  8  85 40 04 01 00 00 00 00 
  1188)      3633.3  Rx         00EE  8  00 00 00 00 00 00 40 8F 
  1189)      3638.3  Rx         0152  8  A7 DA CE 7C 3D D4 7E 9D 
  1190)      3641.3  Rx         01A0  8  31 07 71 F2 3F 00 00 00 
  1191)      3641.5  Rx         01AC  8  A5 57 FF F3 BF FF 01 03 
  1192)      3643.1  Rx         03C0  4  9F 0D 23 00 
  1193)      3648.3  Rx         00FD  8  05 E4 3F 00 00 00 00 00 
  1194)      3653.3  Rx         0504  8  FF 06 00 00 26 11 14 11 
  1195)      3658.3  Rx         0040  8  61 09 00 01 81 00 00 B6 
  1196)      3661.3  Rx         01A0  8  A0 08 71 F2 3F 00 00 00 
  1197)      3661.5  Rx         01AC  8  4A 58 FF F3 BF FF 01 03 
  1198)      3661.7  Rx         02C0  8  E3 0E 39 3F 60 1C 08 50 
  1199)      3663.3  Rx         0151  8  3A 18 FF 7F FC 03 00 7D 
  1200)      3668.3  Rx         0040  8  F8 08 00 01 81 00 00 B4 
  1201)      3673.3  Rx         00A8  8  00 E0 FF D6 99 64 78 0E 
  1202)      3678.3  Rx         0151  8  17 15 FF FF FC 03 00 7D 
  1203)      3681.2  Rx         01A0  8  36 09 71 F2 3F 00 00 00 
  1204)      3681.5  Rx         01AC  8  8B 59 FF F3 BF FF 01 03 
  1205)      3683.3  Rx         01A0  8  FF 9F 0F C3 3F 00 00 00 
  1206)      3688.3  Rx         01AC  8  E0 1F F0 03 42 E2 D1 02 
  1207)      3691.1  Rx     17FC0085  8  06 19 06 00 6D 3F FF FF 
  1208)      3693.3  Rx         018D  8  00 00 7D B3 00 00 3B 01 
  1209)      3698.3  Rx         00A8  8  00 E0 FF D6 99 64 6E 0E 
  1210)      3701.3  Rx         01A0  8  14 0A 71 F2 3F 00 00 00 
  1211)      3701.6  Rx         01AC  8  A7 5A FF F3 BF FF 01 03 
  1212)      3703.3  Rx         00EE  8  00 00 00 00 00 00 40 8F 
  1213)      3708.3  Rx         0152  8  EF D9 CE 7C 3D D7 7E 9D 
  1214)      3713.3  Rx         0151  8  92 16 FF 7F FC 03 00 7D 
  1215)      3718.3  Rx         018D  8  00 10 7D B3 00 00 3B 01 
  1216)      3721.4  Rx         01A0  8  71 0B 71 F2 3F 00 00 00 
  1217)      3721.6  Rx         01AC  8  0F 5B FF F3 BF FF 01 03 
  1218)      3723.3  Rx         03A3  8  17 9D 2F 42 42 3F FE CB 
  1219)      3728.3  Rx         00A8  8  00 E0 FF D6 99 64 66 0E 
  1220)      3730.1  Rx     17FE0085  8  03 7F 19 78 AA AA AA AA 
  1221)      3733.3  Rx         00EE  8  00 00 00 00 00 00 40 8F 
  1222)      3738.3  Rx         0152  8  A7 DA CE 7C 3D D4 7E 9D 
  1223)      3741.3  Rx         01A0  8  AB 0C 71 F2 3F 00 00 00 
  1224)      3741.5  Rx         01AC  8  49 5C FF F3 BF FF 01 03 
  1225)      3741.8  Rx         02C0  8  CF 0F 39 3F 60 1C 08 50 
  1226)      3743.1  Rx         03C0  4  9F 0D 23 00 
  1227)      3748.3  Rx         00FD  8  05 E4 3F 00 00 00 00 00 
  1228)      3750.1  Rx     17FE0085  8  10 4F 59 06 00 6D 3F 2F 
  1229)      3750.9  Rx     17FC0085  8  30 00 00 FF FF FF FF FF 
  1230)      3751.2  Rx     17FE0085  8  21 01 06 01 02 FF 00 00 
  1231)      3751.5  Rx     17FE0085  8  22 00 00 00 00 00 00 00 
  1232)      3751.8  Rx     17FE0085  8  23 71 50 99 3D 3E 3E 3D 
  1233)      3752.1  Rx     17FE0085  8  24 45 82 7F 01 F6 01 F5 
  1234)      3752.4  Rx     17FE0085  8  25 01 F5 00 A9 9F AF 45 
  1235)      3752.8  Rx     17FE0085  8  26 83 87 96 60 66 00 00 
  1236)      3753.0  Rx     17FE0085  8  27 B3 45 84 80 EC 00 7A 
  1237)      3753.3  Rx     17FE0085  8  28 00 45 85 4E 20 01 C2 
  1238)      3753.6  Rx         0504  8  FF 06 00 00 26 11 14 11 
  1239)      3753.9  Rx     17FE0085  8  29 0E 6E 45 86 01 F4 01 
  1240)      3754.1  Rx     17FE0085  8  2A F4 26 65 05 FA 00 10 
  1241)      3754.4  Rx     17FE0085  8  2B 00 01 01 AA AA AA AA 
  1242)      3758.3  Rx         0040  8  61 09 00 01 81 00 00 B6 
  1243)      3761.3  Rx         01A0  8  E9 0D 71 F2 3F 00 00 00 
  1244)      3761.5  Rx         01AC  8  71 5D FF F3 BF FF 01 03 
  1245)      3763.3  Rx         0151  8  3A 18 FF 7F FC 03 00 7D 
  1246)      3768.3  Rx         0040  8  F8 08 00 01 81 00 00 B4 
  1247)      3773.3  Rx         00A8  8  00 E0 FF D6 99 64 78 0E 
  1248)      3778.3  Rx         0151  8  17 15 FF FF FC 03 00 7D 
  1249)      3781.3  Rx         01A0  8  90 0E 71 F2 3F 00 00 00 
  1250)      3781.5  Rx         01AC  8  16 5E FF F3 BF FF 01 03 
  1251)      3783.3  Rx         01A0  8  FF 9F 0F C3 3F 00 00 00 
  1252)      3788.3  Rx         01AC  8  E0 1F F0 03 42 E2 D1 02 
  1253)      3793.3  Rx         018D  8  00 00 7D B3 00 00 3B 01 
  1254)      3798.3  Rx         00A8  8  00 E0 FF D6 99 64 6E 0E 
  1255)      3801.3  Rx         01A0  8  83 0F 71 F2 3F 00 00 00 
  1256)      3801.5  Rx         01AC  8  54 5F FF F3 BF FF 01 03 
  1257)      3803.3  Rx         00EE  8  00 00 00 00 00 00 40 8F 
  1258)      3808.3  Rx         0152  8  EF D9 CE 7C 3D D7 7E 9D 
  1259)      3813.3  Rx         0151  8  92 16 FF 7F FC 03 00 7D 
  1260)      3818.3  Rx         018D  8  00 10 7D B3 00 00 3B 01 
  1261)      3821.3  Rx         01A0  8  74 00 71 F2 3F 00 00 00 
  1262)      3821.5  Rx         01AC  8  F7 50 FF F3 BF FF 01 03 
  1263)      3821.7  Rx         02C0  8  57 00 39 3F 60 1C 08 50 
  1264)      3823.3  Rx         03A3  8  17 9D 2F 42 42 3F FE CB 
  1265)      3828.3  Rx         00A8  8  00 E0 FF D6 99 64 66 0E 
  1266)      3831.3  Rx     1B000085  8  85 40 04 01 00 00 00 00 
  1267)      3833.3  Rx         00EE  8  00 00 00 00 00 00 40 8F 
  1268)      3838.3  Rx         0152  8  A7 DA CE 7C 3D D4 7E 9D 
  1269)      3841.3  Rx         01A0  8  C3 01 71 F2 3F 00 00 00 
  1270)      3841.5  Rx         01AC  8  39 51 FF F3 BF FF 01 03 
  1271)      3841.8  Rx     17F00085  8  20 85 00 00 00 00 01 80 
  1272)      3842.1  Rx     1A5554A7  8  42 00 00 00 00 00 00 80 
  1273)      3842.4  Rx     1A555510  8  80 34 4E 30 30 89 00 00 
  1274)      3844.6  Rx         03C0  4  9F 0D 23 00 
  1275)      3848.3  Rx         00FD  8  05 E4 3F 00 00 00 00 00 
  1276)      3853.3  Rx         0504  8  FF 06 00 00 26 11 14 11 
  1277)      3858.3  Rx         0040  8  61 09 00 01 81 00 00 B6 
  1278)      3861.2  Rx         01A0  8  B2 02 71 F2 3F 00 00 00 
  1279)      3861.4  Rx         01AC  8  C3 52 FF F3 BF FF 01 03 
  1280)      3863.3  Rx         0151  8  3A 18 FF 7F FC 03 00 7D 
  1281)      3868.3  Rx         0040  8  F8 08 00 01 81 00 00 B4 
  1282)      3873.3  Rx         00A8  8  00 E0 FF D6 99 64 78 0E 
  1283)      3878.3  Rx         0151  8  17 15 FF FF FC 03 00 7D 
  1284)      3881.2  Rx         01A0  8  C2 03 71 F2 3F 00 00 00 
  1285)      3881.5  Rx         01AC  8  09 53 FF F3 BF FF 01 03 
  1286)      3883.3  Rx         01A0  8  FF 9F 0F C3 3F 00 00 00 
  1287)      3888.3  Rx         01AC  8  E0 1F F0 03 42 E2 D1 02 
  1288)      3893.3  Rx         018D  8  00 00 7D B3 00 00 3B 01 
  1289)      3898.3  Rx         00A8  8  00 E0 FF D6 99 64 6E 0E 
  1290)      3901.3  Rx         01A0  8  CE 04 71 F2 3F 00 00 00 
  1291)      3901.5  Rx         01AC  8  4C 54 FF F3 BF FF 01 03 
  1292)      3901.7  Rx         02C0  8  8F 01 39 3F 60 1C 08 50 
  1293)      3903.3  Rx         00EE  8  00 00 00 00 00 00 40 8F 
  1294)      3908.3  Rx         0152  8  EF D9 CE 7C 3D D7 7E 9D 
  1295)      3913.3  Rx         0151  8  92 16 FF 7F FC 03 00 7D 
  1296)      3918.3  Rx         018D  8  00 10 7D B3 00 00 3B 01 
  1297)      3921.2  Rx         01A0  8  FB 05 71 F2 3F 00 00 00 
  1298)      3921.4  Rx         01AC  8  ED 55 FF F3 BF FF 01 03 
  1299)      3923.3  Rx         03A3  8  17 9D 2F 42 42 3F FE CB 
  1300)      3928.3  Rx         00A8  8  00 E0 FF D6 99 64 66 0E 
  1301)      3933.3  Rx         00EE  8  00 00 00 00 00 00 40 8F 
  1302)      3938.3  Rx         0152  8  A7 DA CE 7C 3D D4 7E 9D 
  1303)      3941.3  Rx         01A0  8  D9 06 71 F2 3F 00 00 00 
  1304)      3941.5  Rx         01AC  8  3A 56 FF F3 BF FF 01 03 
  1305)      3943.1  Rx         03C0  4  9F 0D 23 00 
  1306)      3948.3  Rx         00FD  8  05 E4 3F 00 00 00 00 00 
  1307)      3953.3  Rx         0504  8  FF 06 00 00 26 11 14 11 
  1308)      3958.3  Rx         0040  8  61 09 00 01 81 00 00 B6 
  1309)      3961.3  Rx         01A0  8  31 07 71 F2 3F 00 00 00 
  1310)      3961.5  Rx         01AC  8  A5 57 FF F3 BF FF 01 03 
  1311)      3963.3  Rx         0151  8  3A 18 FF 7F FC 03 00 7D 
  1312)      3968.1  Rx     17FC0085  8  06 19 06 00 01 03 FF FF 
  1313)      3968.3  Rx         0040  8  F8 08 00 01 81 00 00 B4 
  1314)      3973.3  Rx         00A8  8  00 E0 FF D6 99 64 78 0E 
  1315)      3978.3  Rx         0151  8  17 15 FF FF FC 03 00 7D 
  1316)      3981.3  Rx         01A0  8  A0 08 71 F2 3F 00 00 00 
  1317)      3981.6  Rx         01AC  8  4A 58 FF F3 BF FF 01 03 
  1318)      3981.8  Rx         02C0  8  70 02 39 3F 60 1C 08 50 
  1319)      3983.3  Rx         01A0  8  FF 9F 0F C3 3F 00 00 00 
  1320)      3988.3  Rx         01AC  8  E0 1F F0 03 42 E2 D1 02 
  1321)      3993.3  Rx         018D  8  00 00 7D B3 00 00 3B 01 
  1322)      3998.3  Rx         00A8  8  00 E0 FF D6 99 64 6E 0E 
  1323)      4000.1  Rx     17FE0085  8  03 7F 19 78 AA AA AA AA 
  1324)      4001.4  Rx         01A0  8  36 09 71 F2 3F 00 00 00 
  1325)      4001.6  Rx         01AC  8  8B 59 FF F3 BF FF 01 03 
  1326)      4003.3  Rx         00EE  8  00 00 00 00 00 00 40 8F 
  1327)      4008.3  Rx         0152  8  EF D9 CE 7C 3D D7 7E 9D 
  1328)      4013.3  Rx         0151  8  92 16 FF 7F FC 03 00 7D 
  1329)      4018.3  Rx         018D  8  00 10 7D B3 00 00 3B 01 
  1330)      4020.1  Rx     17FE0085  8  10 4F 59 06 00 01 03 2F 
  1331)      4020.9  Rx     17FC0085  8  30 00 00 FF FF FF FF FF 
  1332)      4021.2  Rx     17FE0085  8  21 01 06 01 02 FF 00 00 
  1333)      4021.5  Rx     17FE0085  8  22 00 00 00 00 00 00 00 
  1334)      4021.8  Rx         01A0  8  14 0A 71 F2 3F 00 00 00 
  1335)      4022.0  Rx         01AC  8  A7 5A FF F3 BF FF 01 03 
  1336)      4022.3  Rx     17FE0085  8  23 71 50 99 3D 3E 3D 3D 
  1337)      4022.6  Rx     17FE0085  8  24 45 82 7F 01 F6 01 F5 
  1338)      4022.9  Rx     17FE0085  8  25 01 F5 00 A9 9F AF 45 
  1339)      4023.2  Rx     17FE0085  8  26 83 87 96 60 66 00 00 
  1340)      4023.4  Rx         03A3  8  17 9D 2F 42 42 3F FE CB 
  1341)      4023.7  Rx     17FE0085  8  27 B3 45 84 80 EC 00 7A 
  1342)      4024.0  Rx     17FE0085  8  28 00 45 85 4E 20 01 C2 
  1343)      4024.3  Rx     17FE0085  8  29 0E 66 45 86 01 F4 01 
  1344)      4024.6  Rx     17FE0085  8  2A F4 26 65 00 FA 00 10 
  1345)      4024.9  Rx     17FE0085  8  2B 00 01 01 AA AA AA AA 
  1346)      4028.3  Rx         00A8  8  00 E0 FF D6 99 64 66 0E 
  1347)      4031.3  Rx     1B000085  8  85 40 04 01 00 00 00 00 
  1348)      4033.3  Rx         00EE  8  00 00 00 00 00 00 40 8F 
  1349)      4038.3  Rx         0152  8  A7 DA CE 7C 3D D4 7E 9D 
  1350)      4041.3  Rx         01A0  8  71 0B 71 F2 3F 00 00 00 
  1351)      4041.5  Rx         01AC  8  0F 5B FF F3 BF FF 01 03 
  1352)      4043.1  Rx         03C0  4  9F 0D 23 00 
  1353)      4048.3  Rx         00FD  8  05 E4 3F 00 00 00 00 00 
  1354)      4053.3  Rx         0504  8  FF 06 00 00 26 11 14 11 
  1355)      4058.3  Rx         0040  8  61 09 00 01 81 00 00 B6 
  1356)      4061.2  Rx         01A0  8  AB 0C 71 F2 3F 00 00 00 
  1357)      4061.5  Rx         01AC  8  49 5C FF F3 BF FF 01 03 
  1358)      4061.7  Rx         02C0  8  C8 03 39 3F 60 1C 08 50 
  1359)      4063.3  Rx         0151  8  3A 18 FF 7F FC 03 00 7D 
  1360)      4068.3  Rx         0040  8  F8 08 00 01 81 00 00 B4 
  1361)      4073.3  Rx         00A8  8  00 E0 FF D6 99 64 78 0E 
  1362)      4078.3  Rx         0151  8  17 15 FF FF FC 03 00 7D 
  1363)      4081.3  Rx         01A0  8  E9 0D 71 F2 3F 00 00 00 
  1364)      4081.5  Rx         01AC  8  71 5D FF F3 BF FF 01 03 
  1365)      4083.3  Rx         01A0  8  FF 9F 0F C3 3F 00 00 00 
  1366)      4088.3  Rx         01AC  8  E0 1F F0 03 42 E2 D1 02 
  1367)      4093.3  Rx         018D  8  00 00 7D B3 00 00 3B 01 
  1368)      4098.3  Rx         00A8  8  00 E0 FF D6 99 64 6E 0E 
  1369)      4101.3  Rx         01A0  8  90 0E 71 F2 3F 00 00 00 
  1370)      4101.5  Rx         01AC  8  16 5E FF F3 BF FF 01 03 
  1371)      4103.3  Rx         00EE  8  00 00 00 00 00 00 40 8F 
  1372)      4108.3  Rx         0152  8  EF D9 CE 7C 3D D7 7E 9D 
  1373)      4113.3  Rx         0151  8  92 16 FF 7F FC 03 00 7D 
  1374)      4118.3  Rx         018D  8  00 10 7D B3 00 00 3B 01 
  1375)      4121.3  Rx         01A0  8  83 0F 71 F2 3F 00 00 00 
  1376)      4121.5  Rx         01AC  8  54 5F FF F3 BF FF 01 03 
  1377)      4123.3  Rx         03A3  8  17 9D 2F 42 42 3F FE CB 
  1378)      4128.3  Rx         00A8  8  00 E0 FF D6 99 64 66 0E 
  1379)      4133.3  Rx         00EE  8  00 00 00 00 00 00 40 8F 
  1380)      4138.3  Rx         0152  8  A7 DA CE 7C 3D D4 7E 9D 
  1381)      4141.3  Rx         01A0  8  74 00 71 F2 3F 00 00 00 
  1382)      4141.5  Rx         01AC  8  F7 50 FF F3 BF FF 01 03 
  1383)      4141.7  Rx         02C0  8  51 04 39 3F 60 1C 08 50 
  1384)      4143.1  Rx         03C0  4  9F 0D 23 00 
  1385)      4148.3  Rx         00FD  8  05 E4 3F 00 00 00 00 00 
  1386)      4154.6  Rx         0504  8  FF 06 00 00 26 11 14 11 
  1387)      4158.3  Rx         0040  8  61 09 00 01 81 00 00 B6 
  1388)      4161.2  Rx         01A0  8  C3 01 71 F2 3F 00 00 00 
  1389)      4161.5  Rx         01AC  8  39 51 FF F3 BF FF 01 03 
  1390)      4163.3  Rx         0151  8  3A 18 FF 7F FC 03 00 7D 
  1391)      4168.3  Rx         0040  8  F8 08 00 01 81 00 00 B4 
  1392)      4173.3  Rx         00A8  8  00 E0 FF D6 99 64 78 0E 
  1393)      4178.3  Rx         0151  8  17 15 FF FF FC 03 00 7D 
  1394)      4181.2  Rx         01A0  8  B2 02 71 F2 3F 00 00 00 
  1395)      4181.5  Rx         01AC  8  C3 52 FF F3 BF FF 01 03 
  1396)      4183.3  Rx         01A0  8  FF 9F 0F C3 3F 00 00 00 
  1397)      4188.3  Rx         01AC  8  E0 1F F0 03 42 E2 D1 02 
  1398)      4193.3  Rx         018D  8  00 00 7D B3 00 00 3B 01 
  1399)      4198.3  Rx         00A8  8  00 E0 FF D6 99 64 6E 0E 
  1400)      4201.3  Rx         01A0  8  C2 03 71 F2 3F 00 00 00 
  1401)      4201.5  Rx         01AC  8  09 53 FF F3 BF FF 01 03 
  1402)      4203.2  Rx         00EE  8  00 00 00 00 00 00 40 8F 
  1403)      4208.2  Rx         0152  8  EF D9 CE 7C 3D D7 7E 9D 
  1404)      4213.2  Rx         0151  8  92 16 FF 7F FC 03 00 7D 
  1405)      4218.2  Rx         018D  8  00 10 7D B3 00 00 3B 01 
  1406)      4221.3  Rx         01A0  8  CE 04 71 F2 3F 00 00 00 
  1407)      4221.5  Rx         01AC  8  4C 54 FF F3 BF FF 01 03 
  1408)      4221.7  Rx         02C0  8  45 05 39 3F 60 1C 08 50 
  1409)      4223.2  Rx         03A3  8  17 9D 2F 42 42 3F FE CB 
  1410)      4228.2  Rx         00A8  8  00 E0 FF D6 99 64 66 0E 
  1411)      4231.3  Rx     1B000085  8  85 40 04 01 00 00 00 00 
  1412)      4233.3  Rx         00EE  8  00 00 00 00 00 00 40 8F 
  1413)      4235.8  Rx     17FC0085  8  06 19 06 00 72 56 FF FF 
  1414)      4238.2  Rx         0152  8  A7 DA CE 7C 3D D4 7E 9D 
  1415)      4241.3  Rx         01A0  8  FB 05 71 F2 3F 00 00 00 
  1416)      4241.5  Rx         01AC  8  ED 55 FF F3 BF FF 01 03 
  1417)      4243.1  Rx         03C0  4  9F 0D 23 00 
  1418)      4248.2  Rx         00FD  8  05 E4 3F 00 00 00 00 00 
  1419)      4253.2  Rx         0504  8  FF 06 00 00 26 11 14 11 
  1420)      4258.2  Rx         0040  8  61 09 00 01 81 00 00 B6 
  1421)      4261.3  Rx         01A0  8  D9 06 71 F2 3F 00 00 00 
  1422)      4261.6  Rx         01AC  8  3A 56 FF F3 BF FF 01 03 
  1423)      4263.2  Rx         0151  8  3A 18 FF 7F FC 03 00 7D 
  1424)      4268.2  Rx         0040  8  F8 08 00 01 81 00 00 B4 
  1425)      4270.1  Rx     17FE0085  8  03 7F 19 78 AA AA AA AA 
  1426)      4273.2  Rx         00A8  8  00 E0 FF D6 99 64 78 0E 
  1427)      4278.2  Rx         0151  8  17 15 FF FF FC 03 00 7D 
  1428)      4281.3  Rx         01A0  8  31 07 71 F2 3F 00 00 00 
  1429)      4281.6  Rx         01AC  8  A5 57 FF F3 BF FF 01 03 
  1430)      4283.2  Rx         01A0  8  FF 9F 0F C3 3F 00 00 00 
  1431)      4288.2  Rx         01AC  8  E0 1F F0 03 42 E2 D1 02 
  1432)      4293.2  Rx         018D  8  00 00 7D B3 00 00 3B 01 
  1433)      4298.2  Rx         00A8  8  00 E0 FF D6 99 64 6E 0E 
  1434)      4300.3  Rx     17FE0085  8  11 12 59 06 00 72 56 2F 
  1435)      4301.0  Rx     17FC0085  8  30 00 00 FF FF FF FF FF 
  1436)      4301.3  Rx     17FE0085  8  21 01 04 01 02 FF 00 00 
  1437)      4301.6  Rx     17FE0085  8  22 00 00 00 00 00 00 00 
  1438)      4301.9  Rx         01A0  8  A0 08 71 F2 3F 00 00 00 
  1439)      4302.1  Rx         01AC  8  4A 58 FF F3 BF FF 01 03 
  1440)      4302.3  Rx         02C0  8  B8 06 39 3F 60 1C 08 50 
  1441)      4302.6  Rx     17FE0085  8  23 71 50 99 3D 3E 3D 3D 
  1442)      4302.9  Rx     17FE0085  8  24 45 82 7F 01 F5 01 F5 
  1443)      4303.2  Rx     17FE0085  8  25 01 F5 00 A9 00 00 45 
  1444)      4303.5  Rx         00EE  8  00 00 00 00 00 00 40 8F 
  1445)      4303.8  Rx     17FE0085  8  26 83 88 96 60 66 00 00 
  1446)      4304.1  Rx     17FE0085  8  27 B3 45 84 80 00 00 7A 
  1447)      4304.4  Rx     17FE0085  8  28 00 45 85 4E 20 00 C8 
  1448)      4304.7  Rx     17FE0085  8  29 0E 78 45 86 01 F4 01 
  1449)      4305.0  Rx     17FE0085  8  2A F4 26 65 00 00 00 10 
  1450)      4305.3  Rx     17FE0085  8  2B 00 01 05 18 0C 00 00 
  1451)      4305.6  Rx     17FE0085  8  2C 00 00 00 00 00 00 00 
  1452)      4305.9  Rx     17FE0085  8  2D 00 00 00 00 00 00 00 
  1453)      4306.2  Rx     17FE0085  8  2E 00 00 18 0D 00 80 00 
  1454)      4306.5  Rx     17FE0085  8  2F 00 02 00 00 00 00 00 
  1455)      4306.8  Rx     17FE0085  8  20 40 42 00 00 3F F4 00 
  1456)      4307.1  Rx     17FE0085  8  21 32 5D 98 5D 9C 3F 80 
  1457)      4307.4  Rx     17FE0085  8  22 30 00 00 30 00 00 EA 
  1458)      4307.7  Rx     17FE0085  8  23 BD 09 E0 00 00 00 00 
  1459)      4308.0  Rx     17FE0085  8  24 00 00 00 00 02 68 05 
  1460)      4308.2  Rx         0152  8  EF D9 CE 7C 3D D7 7E 9D 
  1461)      4308.5  Rx     17FE0085  8  25 EF 00 00 FF 40 FF 40 
  1462)      4308.9  Rx     17FE0085  8  26 18 0E 00 00 00 00 18 
  1463)      4309.2  Rx     17FE0085  8  27 0F 00 00 00 00 18 10 
  1464)      4309.5  Rx     17FE0085  8  28 00 00 00 01 55 55 55 
  1465)      4309.8  Rx     17FE0085  8  29 55 00 80 22 01 00 00 
  1466)      4310.1  Rx     17FE0085  8  2A 00 00 00 00 00 00 00 
  1467)      4310.4  Rx     17FE0085  8  2B 00 00 00 00 00 00 00 
  1468)      4310.7  Rx     17FE0085  8  2C 18 11 00 00 00 00 00 
  1469)      4311.0  Rx     17FE0085  8  2D 00 00 00 00 00 00 00 
  1470)      4311.3  Rx     17FE0085  8  2E 00 00 00 00 00 00 00 
  1471)      4311.6  Rx     17FE0085  8  2F 00 00 01 00 00 00 00 
  1472)      4311.9  Rx     17FE0085  8  20 00 00 00 00 00 00 00 
  1473)      4312.2  Rx     17FE0085  8  21 00 00 00 00 00 00 00 
  1474)      4312.5  Rx     17FE0085  8  22 00 00 00 00 00 00 00 
  1475)      4312.8  Rx     17FE0085  8  23 00 00 00 00 00 00 00 
  1476)      4313.1  Rx     17FE0085  8  24 00 00 00 00 00 00 00 
  1477)      4313.4  Rx         0151  8  92 16 FF 7F FC 03 00 7D 
  1478)      4313.7  Rx     17FE0085  8  25 00 00 00 00 00 00 00 
  1479)      4314.0  Rx     17FE0085  8  26 00 00 00 00 00 00 00 
  1480)      4314.3  Rx     17FE0085  8  27 00 00 AA AA AA AA AA 
  1481)      4318.2  Rx         018D  8  00 10 7D B3 00 00 3B 01 
  1482)      4321.3  Rx         01A0  8  36 09 71 F2 3F 00 00 00 
  1483)      4321.5  Rx         01AC  8  8B 59 FF F3 BF FF 01 03 
  1484)      4323.2  Rx         03A3  8  17 9D 2F 42 42 3F FE CB 
  1485)      4328.2  Rx         00A8  8  00 E0 FF D6 99 64 66 0E 
  1486)      4333.3  Rx         00EE  8  00 00 00 00 00 00 40 8F 
  1487)      4338.2  Rx         0152  8  A7 DA CE 7C 3D D4 7E 9D 
  1488)      4341.3  Rx         01A0  8  14 0A 71 F2 3F 00 00 00 
  1489)      4341.5  Rx         01AC  8  A7 5A FF F3 BF FF 01 03 
  1490)      4341.8  Rx     17F00085  8  20 85 00 00 00 00 01 80 
  1491)      4342.1  Rx     1A5554A7  8  42 00 00 00 00 00 00 80 
  1492)      4343.1  Rx         03C0  4  9F 0D 23 00 
  1493)      4348.2  Rx         00FD  8  05 E4 3F 00 00 00 00 00 
  1494)      4353.2  Rx         0504  8  FF 06 00 00 26 11 14 11 
  1495)      4358.2  Rx         0040  8  61 09 00 01 81 00 00 B6 
  1496)      4361.3  Rx         01A0  8  71 0B 71 F2 3F 00 00 00 
  1497)      4361.5  Rx         01AC  8  0F 5B FF F3 BF FF 01 03 
  1498)      4363.2  Rx         0151  8  3A 18 FF 7F FC 03 00 7D 
  1499)      4368.2  Rx         0040  8  F8 08 00 01 81 00 00 B4 
  1500)      4373.2  Rx         00A8  8  00 E0 FF D6 99 64 78 0E 
  1501)      4378.2  Rx         0151  8  17 15 FF FF FC 03 00 7D 
  1502)      4381.3  Rx         01A0  8  AB 0C 71 F2 3F 00 00 00 
  1503)      4381.5  Rx         01AC  8  49 5C FF F3 BF FF 01 03 
  1504)      4381.7  Rx         02C0  8  18 07 39 3F 60 1C 08 50 
  1505)      4383.2  Rx         01A0  8  FF 9F 0F C3 3F 00 00 00 
  1506)      4388.2  Rx         01AC  8  E0 1F F0 03 42 E2 D1 02 
  1507)      4393.2  Rx         018D  8  00 00 7D B3 00 00 3B 01 
  1508)      4398.2  Rx         00A8  8  00 E0 FF D6 99 64 6E 0E 
  1509)      4401.2  Rx         01A0  8  E9 0D 71 F2 3F 00 00 00 
  1510)      4401.5  Rx         01AC  8  71 5D FF F3 BF FF 01 03 
  1511)      4403.2  Rx         00EE  8  00 00 00 00 00 00 40 8F 
  1512)      4408.2  Rx         0152  8  EF D9 CE 7C 3D D7 7E 9D 
  1513)      4413.2  Rx         0151  8  92 16 FF 7F FC 03 00 7D 
  1514)      4418.2  Rx         018D  8  00 10 7D B3 00 00 3B 01 
  1515)      4421.3  Rx         01A0  8  90 0E 71 F2 3F 00 00 00 
