;$FILEVERSION=1.1
;$STARTTIME=45864.4846629167
;
;   C:\Users\emedrano\Documents\Alternator - AUDI\ECU Information.trc
;
;   Start time: 7/26/2025 11:37:54.876.0
;
;   Message Number
;   |         Time Offset (ms)
;   |         |        Type
;   |         |        |        ID (hex)
;   |         |        |        |     Data Length Code
;   |         |        |        |     |   Data Bytes (hex) ...
;   |         |        |        |     |   |
;---+--   ----+----  --+--  ----+---  +  -+ -- -- -- -- -- -- --
     1)         1.2  Rx     1B000085  8  85 40 04 01 00 00 00 00 
     2)         3.5  Rx         0152  8  EF D9 CE 7C 3D D7 7E 9D 
     3)         8.5  Rx         0151  8  92 16 FF 7F FC 03 00 7D 
     4)        10.8  Rx         01A0  8  C2 03 71 F2 3F 00 00 00 
     5)        11.0  Rx         01AC  8  71 13 FF A3 C3 FF 01 03 
     6)        13.5  Rx         018D  8  00 10 7D B3 00 00 3B 01 
     7)        18.5  Rx         03A3  8  17 9D 2F 42 42 3F FE CB 
     8)        23.5  Rx         00A8  8  00 E0 FF D6 99 64 66 0E 
     9)        28.5  Rx         00EE  8  00 00 00 00 00 00 40 8F 
    10)        30.9  Rx         01A0  8  CE 04 71 F2 3F 00 00 00 
    11)        31.1  Rx         01AC  8  34 14 FF A3 C3 FF 01 03 
    12)        31.4  Rx         02C0  8  F4 05 39 3F 60 1C 08 00 
    13)        33.5  Rx         0152  8  A7 DA CE 7C 3D D4 7E 9D 
    14)        38.4  Rx         03C0  4  9F 0D 23 00 
    15)        43.6  Rx         00FD  8  05 E4 3F 00 00 00 00 00 
    16)        48.6  Rx         0504  8  FF 06 00 00 26 11 14 11 
    17)        50.9  Rx         01A0  8  FB 05 71 F2 3F 00 00 00 
    18)        51.1  Rx         01AC  8  95 15 FF A3 C3 FF 01 03 
    19)        53.5  Rx         0040  8  61 09 00 01 81 00 00 B6 
    20)        58.5  Rx         0151  8  3A 18 FF 7F FC 03 00 7D 
    21)        63.5  Rx         0040  8  F8 08 00 01 81 00 00 B4 
    22)        68.5  Rx         00A8  8  00 E0 FF D6 99 64 78 0E 
    23)        71.0  Rx         01A0  8  D9 06 71 F2 3F 00 00 00 
    24)        71.2  Rx         01AC  8  42 16 FF A3 C3 FF 01 03 
    25)        73.6  Rx         0151  8  17 15 FF FF FC 03 00 7D 
    26)        78.5  Rx         01A0  8  FF 9F 0F C3 3F 00 00 00 
    27)        83.5  Rx         01AC  8  E0 1F F0 03 42 E2 D1 02 
    28)        88.5  Rx         018D  8  00 00 7D B3 00 00 3B 01 
    29)        90.8  Rx         01A0  8  31 07 71 F2 3F 00 00 00 
    30)        91.1  Rx         01AC  8  DD 17 FF A3 C3 FF 01 03 
    31)        93.5  Rx         00A8  8  00 E0 FF D6 99 64 6E 0E 
    32)        98.6  Rx         00EE  8  00 00 00 00 00 00 40 8F 
    33)       103.5  Rx         0152  8  EF D9 CE 7C 3D D7 7E 9D 
    34)       108.5  Rx         0151  8  92 16 FF 7F FC 03 00 7D 
    35)       111.0  Rx         01A0  8  A0 08 71 F2 3F 00 00 00 
    36)       111.2  Rx         01AC  8  32 18 FF A3 C3 FF 01 03 
    37)       111.4  Rx         02C0  8  09 06 39 3F 60 1C 08 00 
    38)       113.5  Rx         018D  8  00 10 7D B3 00 00 3B 01 
    39)       114.0  Rx         0700  8  02 3E 80 FF FF FF FF FF 
    40)       118.5  Rx         03A3  8  17 9D 2F 42 42 3F FE CB 
    41)       123.5  Rx         00A8  8  00 E0 FF D6 99 64 66 0E 
    42)       128.6  Rx         00EE  8  00 00 00 00 00 00 40 8F 
    43)       131.0  Rx         01A0  8  36 09 71 F2 3F 00 00 00 
    44)       131.3  Rx         01AC  8  F3 19 FF A3 C3 FF 01 03 
    45)       133.5  Rx         0152  8  A7 DA CE 7C 3D D4 7E 9D 
    46)       138.4  Rx         03C0  4  9F 0D 23 00 
    47)       143.5  Rx         00FD  8  05 E4 3F 00 00 00 00 00 
    48)       148.5  Rx         0504  8  FF 06 00 00 26 11 14 11 
    49)       150.7  Rx         01A0  8  14 0A 71 F2 3F 00 00 00 
    50)       151.0  Rx         01AC  8  DF 1A FF A3 C3 FF 01 03 
    51)       153.6  Rx         0040  8  61 09 00 01 81 00 00 B6 
    52)       158.5  Rx         0151  8  3A 18 FF 7F FC 03 00 7D 
    53)       163.5  Rx         0040  8  F8 08 00 01 81 00 00 B4 
    54)       168.5  Rx         00A8  8  00 E0 FF D6 99 64 78 0E 
    55)       170.9  Rx         01A0  8  71 0B 71 F2 3F 00 00 00 
    56)       171.1  Rx         01AC  8  77 1B FF A3 C3 FF 01 03 
    57)       173.5  Rx         0151  8  17 15 FF FF FC 03 00 7D 
    58)       178.6  Rx         01A0  8  FF 9F 0F C3 3F 00 00 00 
    59)       183.5  Rx         01AC  8  E0 1F F0 03 42 E2 D1 02 
    60)       188.5  Rx         018D  8  00 00 7D B3 00 00 3B 01 
    61)       191.0  Rx         01A0  8  AB 0C 71 F2 3F 00 00 00 
    62)       191.2  Rx         01AC  8  31 1C FF A3 C3 FF 01 03 
    63)       191.4  Rx         02C0  8  A9 07 39 3F 60 1C 08 00 
    64)       193.5  Rx         00A8  8  00 E0 FF D6 99 64 6E 0E 
    65)       198.5  Rx         00EE  8  00 00 00 00 00 00 40 8F 
    66)       200.8  Rx     1B000085  8  85 40 04 01 00 00 00 00 
    67)       203.5  Rx         0152  8  EF D9 CE 7C 3D D7 7E 9D 
    68)       208.6  Rx         0151  8  92 16 FF 7F FC 03 00 7D 
    69)       211.0  Rx         01A0  8  E9 0D 71 F2 3F 00 00 00 
    70)       211.3  Rx         01AC  8  09 1D FF A3 C3 FF 01 03 
    71)       213.5  Rx         018D  8  00 10 7D B3 00 00 3B 01 
    72)       218.5  Rx         03A3  8  17 9D 2F 42 42 3F FE CB 
    73)       223.5  Rx         00A8  8  00 E0 FF D6 99 64 66 0E 
    74)       228.6  Rx         00EE  8  00 00 00 00 00 00 40 8F 
    75)       230.8  Rx         01A0  8  90 0E 71 F2 3F 00 00 00 
    76)       231.0  Rx         01AC  8  6E 1E FF A3 C3 FF 01 03 
    77)       233.5  Rx         0152  8  A7 DA CE 7C 3D D4 7E 9D 
    78)       238.4  Rx         03C0  4  9F 0D 23 00 
    79)       243.5  Rx         00FD  8  05 E4 3F 00 00 00 00 00 
    80)       248.5  Rx         0504  8  FF 06 00 00 26 11 14 11 
    81)       250.8  Rx         01A0  8  83 0F 71 F2 3F 00 00 00 
    82)       251.0  Rx         01AC  8  2C 1F FF A3 C3 FF 01 03 
    83)       253.5  Rx         0040  8  61 09 00 01 81 00 00 B6 
    84)       258.5  Rx         0151  8  3A 18 FF 7F FC 03 00 7D 
    85)       263.6  Rx         0040  8  F8 08 00 01 81 00 00 B4 
    86)       268.5  Rx         00A8  8  00 E0 FF D6 99 64 78 0E 
    87)       270.9  Rx         01A0  8  74 00 71 F2 3F 00 00 00 
    88)       271.1  Rx         01AC  8  8F 10 FF A3 C3 FF 01 03 
    89)       271.4  Rx         02C0  8  F8 08 39 3F 60 1C 08 00 
    90)       273.5  Rx         0151  8  17 15 FF FF FC 03 00 7D 
    91)       278.5  Rx         01A0  8  FF 9F 0F C3 3F 00 00 00 
    92)       283.5  Rx         01AC  8  E0 1F F0 03 42 E2 D1 02 
    93)       290.0  Rx         018D  8  00 00 7D B3 00 00 3B 01 
    94)       290.7  Rx         01A0  8  C3 01 71 F2 3F 00 00 00 
    95)       290.9  Rx         01AC  8  41 11 FF A3 C3 FF 01 03 
    96)       293.5  Rx         00A8  8  00 E0 FF D6 99 64 6E 0E 
    97)       298.5  Rx         00EE  8  00 00 00 00 00 00 40 8F 
    98)       303.5  Rx         0152  8  EF D9 CE 7C 3D D7 7E 9D 
    99)       308.5  Rx         0151  8  92 16 FF 7F FC 03 00 7D 
   100)       311.0  Rx         01A0  8  B2 02 71 F2 3F 00 00 00 
   101)       311.2  Rx         01AC  8  BB 12 FF A3 C3 FF 01 03 
   102)       311.5  Rx     17F00085  8  20 85 00 00 00 00 01 80 
   103)       311.8  Rx     1A5554A7  8  42 00 00 00 00 00 00 80 
   104)       313.6  Rx         018D  8  00 10 7D B3 00 00 3B 01 
   105)       318.5  Rx         03A3  8  17 9D 2F 42 42 3F FE CB 
   106)       323.5  Rx         00A8  8  00 E0 FF D6 99 64 66 0E 
   107)       328.5  Rx         00EE  8  00 00 00 00 00 00 40 8F 
   108)       330.7  Rx         01A0  8  C2 03 71 F2 3F 00 00 00 
   109)       330.9  Rx         01AC  8  71 13 FF A3 C3 FF 01 03 
   110)       333.5  Rx         0152  8  A7 DA CE 7C 3D D4 7E 9D 
   111)       338.3  Rx         03C0  4  9F 0D 23 00 
   112)       343.6  Rx         00FD  8  05 E4 3F 00 00 00 00 00 
   113)       348.5  Rx         0504  8  FF 06 00 00 26 11 14 11 
   114)       350.8  Rx         01A0  8  CE 04 71 F2 3F 00 00 00 
   115)       351.1  Rx         01AC  8  34 14 FF A3 C3 FF 01 03 
   116)       351.3  Rx         02C0  8  0D 09 39 3F 60 1C 08 00 
   117)       353.5  Rx         0040  8  61 09 00 01 81 00 00 B6 
   118)       358.5  Rx         0151  8  3A 18 FF 7F FC 03 00 7D 
   119)       363.6  Rx         0040  8  F8 08 00 01 81 00 00 B4 
   120)       368.6  Rx         00A8  8  00 E0 FF D6 99 64 78 0E 
   121)       370.8  Rx         01A0  8  FB 05 71 F2 3F 00 00 00 
   122)       371.0  Rx         01AC  8  95 15 FF A3 C3 FF 01 03 
   123)       373.5  Rx         0151  8  17 15 FF FF FC 03 00 7D 
   124)       378.5  Rx         01A0  8  FF 9F 0F C3 3F 00 00 00 
   125)       383.5  Rx         01AC  8  E0 1F F0 03 42 E2 D1 02 
   126)       388.5  Rx         018D  8  00 00 7D B3 00 00 3B 01 
   127)       391.0  Rx         01A0  8  D9 06 71 F2 3F 00 00 00 
   128)       391.2  Rx         01AC  8  42 16 FF A3 C3 FF 01 03 
   129)       393.5  Rx         00A8  8  00 E0 FF D6 99 64 6E 0E 
   130)       398.5  Rx         00EE  8  00 00 00 00 00 00 40 8F 
   131)       400.9  Rx     1B000085  8  85 40 04 01 00 00 00 00 
   132)       403.5  Rx         0152  8  EF D9 CE 7C 3D D7 7E 9D 
   133)       408.5  Rx         0151  8  92 16 FF 7F FC 03 00 7D 
   134)       410.6  Rx         01A0  8  31 07 71 F2 3F 00 00 00 
   135)       410.8  Rx         01AC  8  DD 17 FF A3 C3 FF 01 03 
   136)       413.5  Rx         018D  8  00 10 7D B3 00 00 3B 01 
   137)       418.4  Rx         03A3  8  17 9D 2F 42 42 3F FE CB 
   138)       423.5  Rx         00A8  8  00 E0 FF D6 99 64 66 0E 
   139)       428.5  Rx         00EE  8  00 00 00 00 00 00 40 8F 
   140)       430.8  Rx         01A0  8  A0 08 71 F2 3F 00 00 00 
   141)       431.1  Rx         01AC  8  32 18 FF A3 C3 FF 01 03 
   142)       431.3  Rx         02C0  8  B9 0A 39 3F 60 1C 08 00 
   143)       433.5  Rx         0152  8  A7 DA CE 7C 3D D4 7E 9D 
   144)       438.3  Rx         03C0  4  9F 0D 23 00 
   145)       443.5  Rx         00FD  8  05 E4 3F 00 00 00 00 00 
   146)       448.5  Rx         0504  8  FF 06 00 00 26 11 14 11 
   147)       451.1  Rx         01A0  8  36 09 71 F2 3F 00 00 00 
   148)       451.4  Rx         01AC  8  F3 19 FF A3 C3 FF 01 03 
   149)       453.5  Rx         0040  8  61 09 00 01 81 00 00 B6 
   150)       458.5  Rx         0151  8  3A 18 FF 7F FC 03 00 7D 
   151)       463.5  Rx         0040  8  F8 08 00 01 81 00 00 B4 
   152)       468.4  Rx         00A8  8  00 E0 FF D6 99 64 78 0E 
   153)       470.8  Rx         01A0  8  14 0A 71 F2 3F 00 00 00 
   154)       471.0  Rx         01AC  8  DF 1A FF A3 C3 FF 01 03 
   155)       473.4  Rx         0151  8  17 15 FF FF FC 03 00 7D 
   156)       478.5  Rx         01A0  8  FF 9F 0F C3 3F 00 00 00 
   157)       483.4  Rx         01AC  8  E0 1F F0 03 42 E2 D1 02 
   158)       488.5  Rx         018D  8  00 00 7D B3 00 00 3B 01 
   159)       490.8  Rx         01A0  8  71 0B 71 F2 3F 00 00 00 
   160)       491.0  Rx         01AC  8  77 1B FF A3 C3 FF 01 03 
   161)       493.5  Rx         00A8  8  00 E0 FF D6 99 64 6E 0E 
   162)       498.5  Rx         00EE  8  00 00 00 00 00 00 40 8F 
   163)       503.4  Rx         0152  8  EF D9 CE 7C 3D D7 7E 9D 
   164)       508.5  Rx         0151  8  92 16 FF 7F FC 03 00 7D 
   165)       511.1  Rx         01A0  8  AB 0C 71 F2 3F 00 00 00 
   166)       511.3  Rx         01AC  8  31 1C FF A3 C3 FF 01 03 
   167)       511.6  Rx         02C0  8  FC 0B 39 3F 60 1C 08 00 
   168)       513.5  Rx         018D  8  00 10 7D B3 00 00 3B 01 
   169)       518.5  Rx         03A3  8  17 9D 2F 42 42 3F FE CB 
   170)       523.5  Rx         00A8  8  00 E0 FF D6 99 64 66 0E 
   171)       528.5  Rx         00EE  8  00 00 00 00 00 00 40 8F 
   172)       530.9  Rx         01A0  8  E9 0D 71 F2 3F 00 00 00 
   173)       531.1  Rx         01AC  8  09 1D FF A3 C3 FF 01 03 
   174)       533.4  Rx         0152  8  A7 DA CE 7C 3D D4 7E 9D 
   175)       538.3  Rx         03C0  4  9F 0D 23 00 
   176)       543.5  Rx         00FD  8  05 E4 3F 00 00 00 00 00 
   177)       548.5  Rx         0504  8  FF 06 00 00 26 11 14 11 
   178)       550.9  Rx         01A0  8  90 0E 71 F2 3F 00 00 00 
   179)       551.2  Rx         01AC  8  6E 1E FF A3 C3 FF 01 03 
   180)       553.4  Rx         0040  8  61 09 00 01 81 00 00 B6 
   181)       558.4  Rx         0151  8  3A 18 FF 7F FC 03 00 7D 
   182)       563.5  Rx         0040  8  F8 08 00 01 81 00 00 B4 
   183)       568.4  Rx         00A8  8  00 E0 FF D6 99 64 78 0E 
   184)       570.9  Rx         01A0  8  83 0F 71 F2 3F 00 00 00 
   185)       571.2  Rx         01AC  8  2C 1F FF A3 C3 FF 01 03 
   186)       573.5  Rx         0151  8  17 15 FF FF FC 03 00 7D 
   187)       578.5  Rx         01A0  8  FF 9F 0F C3 3F 00 00 00 
   188)       583.4  Rx         01AC  8  E0 1F F0 03 42 E2 D1 02 
   189)       588.5  Rx         018D  8  00 00 7D B3 00 00 3B 01 
   190)       590.8  Rx         01A0  8  74 00 71 F2 3F 00 00 00 
   191)       591.1  Rx         01AC  8  8F 10 FF A3 C3 FF 01 03 
   192)       591.3  Rx         02C0  8  A4 0C 39 3F 60 1C 08 00 
   193)       593.5  Rx         00A8  8  00 E0 FF D6 99 64 6E 0E 
   194)       599.9  Rx         00EE  8  00 00 00 00 00 00 40 8F 
   195)       601.0  Rx     1B000085  8  85 40 04 01 00 00 00 00 
   196)       603.4  Rx         0152  8  EF D9 CE 7C 3D D7 7E 9D 
   197)       608.4  Rx         0151  8  92 16 FF 7F FC 03 00 7D 
   198)       610.8  Rx         01A0  8  C3 01 71 F2 3F 00 00 00 
   199)       611.1  Rx         01AC  8  41 11 FF A3 C3 FF 01 03 
   200)       611.4  Rx     1A555510  8  01 32 38 50 20 00 00 00 
   201)       613.5  Rx         018D  8  00 10 7D B3 00 00 3B 01 
   202)       618.4  Rx         03A3  8  17 9D 2F 42 42 3F FE CB 
   203)       623.5  Rx         00A8  8  00 E0 FF D6 99 64 66 0E 
   204)       626.0  Rx         0700  8  02 3E 80 FF FF FF FF FF 
   205)       628.5  Rx         00EE  8  00 00 00 00 00 00 40 8F 
   206)       630.7  Rx         01A0  8  B2 02 71 F2 3F 00 00 00 
   207)       630.9  Rx         01AC  8  BB 12 FF A3 C3 FF 01 03 
   208)       633.4  Rx         0152  8  A7 DA CE 7C 3D D4 7E 9D 
   209)       638.3  Rx         03C0  4  9F 0D 23 00 
   210)       643.5  Rx         00FD  8  05 E4 3F 00 00 00 00 00 
   211)       648.5  Rx         0504  8  FF 06 00 00 26 11 14 11 
   212)       650.8  Rx         01A0  8  C2 03 71 F2 3F 00 00 00 
   213)       651.1  Rx         01AC  8  71 13 FF A3 C3 FF 01 03 
   214)       653.5  Rx         0040  8  61 09 00 01 81 00 00 B6 
   215)       658.5  Rx         0151  8  3A 18 FF 7F FC 03 00 7D 
   216)       663.5  Rx         0040  8  F8 08 00 01 81 00 00 B4 
   217)       668.4  Rx         00A8  8  00 E0 FF D6 99 64 78 0E 
   218)       670.8  Rx         01A0  8  CE 04 71 F2 3F 00 00 00 
   219)       671.1  Rx         01AC  8  34 14 FF A3 C3 FF 01 03 
   220)       671.3  Rx         02C0  8  CC 0D 39 3F 60 1C 08 00 
   221)       673.5  Rx         0151  8  17 15 FF FF FC 03 00 7D 
   222)       678.5  Rx         01A0  8  FF 9F 0F C3 3F 00 00 00 
   223)       683.4  Rx         01AC  8  E0 1F F0 03 42 E2 D1 02 
   224)       688.5  Rx         018D  8  00 00 7D B3 00 00 3B 01 
   225)       690.9  Rx         01A0  8  FB 05 71 F2 3F 00 00 00 
   226)       691.2  Rx         01AC  8  95 15 FF A3 C3 FF 01 03 
   227)       693.4  Rx         00A8  8  00 E0 FF D6 99 64 6E 0E 
   228)       698.5  Rx         00EE  8  00 00 00 00 00 00 40 8F 
   229)       703.4  Rx         0152  8  EF D9 CE 7C 3D D7 7E 9D 
   230)       708.5  Rx         0151  8  92 16 FF 7F FC 03 00 7D 
   231)       710.9  Rx         01A0  8  D9 06 71 F2 3F 00 00 00 
   232)       711.1  Rx         01AC  8  42 16 FF A3 C3 FF 01 03 
   233)       713.4  Rx         018D  8  00 10 7D B3 00 00 3B 01 
   234)       718.4  Rx         03A3  8  17 9D 2F 42 42 3F FE CB 
   235)       723.4  Rx         00A8  8  00 E0 FF D6 99 64 66 0E 
   236)       728.5  Rx         00EE  8  00 00 00 00 00 00 40 8F 
   237)       731.0  Rx         01A0  8  31 07 71 F2 3F 00 00 00 
   238)       731.2  Rx         01AC  8  DD 17 FF A3 C3 FF 01 03 
   239)       733.4  Rx         0152  8  A7 DA CE 7C 3D D4 7E 9D 
   240)       738.3  Rx         03C0  4  9F 0D 23 00 
   241)       743.5  Rx         00FD  8  05 E4 3F 00 00 00 00 00 
   242)       748.4  Rx         0504  8  FF 06 00 00 26 11 14 11 
   243)       750.9  Rx         01A0  8  A0 08 71 F2 3F 00 00 00 
   244)       751.1  Rx         01AC  8  32 18 FF A3 C3 FF 01 03 
   245)       751.4  Rx         02C0  8  52 0E 39 3F 60 1C 08 00 
   246)       753.5  Rx         0040  8  61 09 00 01 81 00 00 B6 
   247)       758.5  Rx         0151  8  3A 18 FF 7F FC 03 00 7D 
   248)       763.5  Rx         0040  8  F8 08 00 01 81 00 00 B4 
   249)       768.5  Rx         00A8  8  00 E0 FF D6 99 64 78 0E 
   250)       770.8  Rx         01A0  8  36 09 71 F2 3F 00 00 00 
   251)       771.1  Rx         01AC  8  F3 19 FF A3 C3 FF 01 03 
   252)       773.5  Rx         0151  8  17 15 FF FF FC 03 00 7D 
   253)       778.5  Rx         01A0  8  FF 9F 0F C3 3F 00 00 00 
   254)       783.5  Rx         01AC  8  E0 1F F0 03 42 E2 D1 02 
   255)       788.4  Rx         018D  8  00 00 7D B3 00 00 3B 01 
   256)       790.7  Rx         01A0  8  14 0A 71 F2 3F 00 00 00 
   257)       790.9  Rx         01AC  8  DF 1A FF A3 C3 FF 01 03 
   258)       793.4  Rx         00A8  8  00 E0 FF D6 99 64 6E 0E 
   259)       798.5  Rx         00EE  8  00 00 00 00 00 00 40 8F 
   260)       800.8  Rx     1B000085  8  85 40 04 01 00 00 00 00 
   261)       803.4  Rx         0152  8  EF D9 CE 7C 3D D7 7E 9D 
   262)       808.4  Rx         0151  8  92 16 FF 7F FC 03 00 7D 
   263)       810.7  Rx         01A0  8  71 0B 71 F2 3F 00 00 00 
   264)       811.0  Rx         01AC  8  77 1B FF A3 C3 FF 01 03 
   265)       811.3  Rx     17F00085  8  20 85 00 00 00 00 01 80 
   266)       811.5  Rx     1A5554A7  8  42 00 00 00 00 00 00 80 
   267)       813.5  Rx         018D  8  00 10 7D B3 00 00 3B 01 
   268)       818.4  Rx         03A3  8  17 9D 2F 42 42 3F FE CB 
   269)       823.4  Rx         00A8  8  00 E0 FF D6 99 64 66 0E 
   270)       828.5  Rx         00EE  8  00 00 00 00 00 00 40 8F 
   271)       830.8  Rx         01A0  8  AB 0C 71 F2 3F 00 00 00 
   272)       831.1  Rx         01AC  8  31 1C FF A3 C3 FF 01 03 
   273)       831.3  Rx         02C0  8  7E 0F 39 3F 60 1C 08 00 
   274)       833.4  Rx         0152  8  A7 DA CE 7C 3D D4 7E 9D 
   275)       838.3  Rx         03C0  4  9F 0D 23 00 
   276)       843.5  Rx         00FD  8  05 E4 3F 00 00 00 00 00 
   277)       848.4  Rx         0504  8  FF 06 00 00 26 11 14 11 
   278)       851.0  Rx         01A0  8  E9 0D 71 F2 3F 00 00 00 
   279)       851.2  Rx         01AC  8  09 1D FF A3 C3 FF 01 03 
   280)       853.4  Rx         0040  8  61 09 00 01 81 00 00 B6 
   281)       858.4  Rx         0151  8  3A 18 FF 7F FC 03 00 7D 
   282)       863.5  Rx         0040  8  F8 08 00 01 81 00 00 B4 
   283)       868.4  Rx         00A8  8  00 E0 FF D6 99 64 78 0E 
   284)       870.8  Rx         01A0  8  90 0E 71 F2 3F 00 00 00 
   285)       871.1  Rx         01AC  8  6E 1E FF A3 C3 FF 01 03 
   286)       873.4  Rx         0151  8  17 15 FF FF FC 03 00 7D 
   287)       878.5  Rx         01A0  8  FF 9F 0F C3 3F 00 00 00 
   288)       883.4  Rx         01AC  8  E0 1F F0 03 42 E2 D1 02 
   289)       888.5  Rx         018D  8  00 00 7D B3 00 00 3B 01 
   290)       891.0  Rx         01A0  8  83 0F 71 F2 3F 00 00 00 
   291)       891.2  Rx         01AC  8  2C 1F FF A3 C3 FF 01 03 
   292)       893.4  Rx         00A8  8  00 E0 FF D6 99 64 6E 0E 
   293)       898.5  Rx         00EE  8  00 00 00 00 00 00 40 8F 
   294)       903.4  Rx         0152  8  EF D9 CE 7C 3D D7 7E 9D 
   295)       909.9  Rx         0151  8  92 16 FF 7F FC 03 00 7D 
   296)       911.1  Rx         01A0  8  74 00 71 F2 3F 00 00 00 
   297)       911.4  Rx         01AC  8  8F 10 FF A3 C3 FF 01 03 
   298)       911.6  Rx         02C0  8  E6 00 39 3F 60 1C 08 00 
   299)       913.5  Rx         018D  8  00 10 7D B3 00 00 3B 01 
   300)       918.4  Rx         03A3  8  17 9D 2F 42 42 3F FE CB 
   301)       923.4  Rx         00A8  8  00 E0 FF D6 99 64 66 0E 
   302)       928.5  Rx         00EE  8  00 00 00 00 00 00 40 8F 
   303)       930.7  Rx         01A0  8  C3 01 71 F2 3F 00 00 00 
   304)       930.9  Rx         01AC  8  41 11 FF A3 C3 FF 01 03 
   305)       933.4  Rx         0152  8  A7 DA CE 7C 3D D4 7E 9D 
   306)       938.3  Rx         03C0  4  9F 0D 23 00 
   307)       943.5  Rx         00FD  8  05 E4 3F 00 00 00 00 00 
   308)       948.4  Rx         0504  8  FF 06 00 00 26 11 14 11 
   309)       950.8  Rx         01A0  8  B2 02 71 F2 3F 00 00 00 
   310)       951.0  Rx         01AC  8  BB 12 FF A3 C3 FF 01 03 
   311)       953.4  Rx         0040  8  61 09 00 01 81 00 00 B6 
   312)       958.4  Rx         0151  8  3A 18 FF 7F FC 03 00 7D 
   313)       963.4  Rx         0040  8  F8 08 00 01 81 00 00 B4 
   314)       968.4  Rx         00A8  8  00 E0 FF D6 99 64 78 0E 
   315)       970.9  Rx         01A0  8  C2 03 71 F2 3F 00 00 00 
   316)       971.1  Rx         01AC  8  71 13 FF A3 C3 FF 01 03 
   317)       973.4  Rx         0151  8  17 15 FF FF FC 03 00 7D 
   318)       978.5  Rx         01A0  8  FF 9F 0F C3 3F 00 00 00 
   319)       983.4  Rx         01AC  8  E0 1F F0 03 42 E2 D1 02 
   320)       988.5  Rx         018D  8  00 00 7D B3 00 00 3B 01 
   321)       990.8  Rx         01A0  8  CE 04 71 F2 3F 00 00 00 
   322)       991.0  Rx         01AC  8  34 14 FF A3 C3 FF 01 03 
   323)       991.3  Rx         02C0  8  3E 01 39 3F 60 1C 08 00 
   324)       993.4  Rx         00A8  8  00 E0 FF D6 99 64 6E 0E 
   325)       998.5  Rx         00EE  8  00 00 00 00 00 00 40 8F 
   326)      1000.9  Rx     1B000085  8  85 40 04 01 00 00 00 00 
   327)      1003.4  Rx         0152  8  EF D9 CE 7C 3D D7 7E 9D 
   328)      1008.4  Rx         0151  8  92 16 FF 7F FC 03 00 7D 
   329)      1010.8  Rx         01A0  8  FB 05 71 F2 3F 00 00 00 
   330)      1011.0  Rx         01AC  8  95 15 FF A3 C3 FF 01 03 
   331)      1013.4  Rx         018D  8  00 10 7D B3 00 00 3B 01 
   332)      1018.4  Rx         03A3  8  17 9D 2F 42 42 3F FE CB 
   333)      1023.4  Rx         00A8  8  00 E0 FF D6 99 64 66 0E 
   334)      1028.5  Rx         00EE  8  00 00 00 00 00 00 40 8F 
   335)      1030.6  Rx         01A0  8  D9 06 71 F2 3F 00 00 00 
   336)      1030.8  Rx         01AC  8  42 16 FF A3 C3 FF 01 03 
   337)      1033.4  Rx         0152  8  A7 DA CE 7C 3D D4 7E 9D 
   338)      1038.3  Rx         03C0  4  9F 0D 23 00 
   339)      1043.4  Rx         00FD  8  05 E4 3F 00 00 00 00 00 
   340)      1048.4  Rx         0504  8  FF 06 00 00 26 11 14 11 
   341)      1050.7  Rx         01A0  8  31 07 71 F2 3F 00 00 00 
   342)      1050.9  Rx         01AC  8  DD 17 FF A3 C3 FF 01 03 
   343)      1053.4  Rx         0040  8  61 09 00 01 81 00 00 B6 
   344)      1058.4  Rx         0151  8  3A 18 FF 7F FC 03 00 7D 
   345)      1063.4  Rx         0040  8  F8 08 00 01 81 00 00 B4 
   346)      1068.4  Rx         00A8  8  00 E0 FF D6 99 64 78 0E 
   347)      1070.9  Rx         01A0  8  A0 08 71 F2 3F 00 00 00 
   348)      1071.1  Rx         01AC  8  32 18 FF A3 C3 FF 01 03 
   349)      1071.4  Rx         02C0  8  C1 02 39 3F 60 1C 08 00 
   350)      1073.4  Rx         0151  8  17 15 FF FF FC 03 00 7D 
   351)      1078.5  Rx         01A0  8  FF 9F 0F C3 3F 00 00 00 
   352)      1083.4  Rx         01AC  8  E0 1F F0 03 42 E2 D1 02 
   353)      1088.5  Rx         018D  8  00 00 7D B3 00 00 3B 01 
   354)      1091.1  Rx         01A0  8  36 09 71 F2 3F 00 00 00 
   355)      1091.3  Rx         01AC  8  F3 19 FF A3 C3 FF 01 03 
   356)      1093.4  Rx         00A8  8  00 E0 FF D6 99 64 6E 0E 
   357)      1098.4  Rx         00EE  8  00 00 00 00 00 00 40 8F 
   358)      1103.4  Rx         0152  8  EF D9 CE 7C 3D D7 7E 9D 
   359)      1108.4  Rx         0151  8  92 16 FF 7F FC 03 00 7D 
   360)      1111.0  Rx         01A0  8  14 0A 71 F2 3F 00 00 00 
   361)      1111.2  Rx         01AC  8  DF 1A FF A3 C3 FF 01 03 
   362)      1113.4  Rx         018D  8  00 10 7D B3 00 00 3B 01 
   363)      1118.4  Rx         03A3  8  17 9D 2F 42 42 3F FE CB 
   364)      1123.4  Rx         00A8  8  00 E0 FF D6 99 64 66 0E 
   365)      1128.5  Rx         00EE  8  00 00 00 00 00 00 40 8F 
   366)      1130.7  Rx         01A0  8  71 0B 71 F2 3F 00 00 00 
   367)      1130.9  Rx         01AC  8  77 1B FF A3 C3 FF 01 03 
   368)      1133.3  Rx         0152  8  A7 DA CE 7C 3D D4 7E 9D 
   369)      1138.0  Rx         0700  8  02 3E 80 FF FF FF FF FF 
   370)      1138.3  Rx         03C0  4  9F 0D 23 00 
   371)      1143.5  Rx         00FD  8  05 E4 3F 00 00 00 00 00 
   372)      1148.4  Rx         0504  8  FF 06 00 00 26 11 14 11 
   373)      1150.8  Rx         01A0  8  AB 0C 71 F2 3F 00 00 00 
   374)      1151.0  Rx         01AC  8  31 1C FF A3 C3 FF 01 03 
   375)      1151.2  Rx         02C0  8  79 03 39 3F 60 1C 08 00 
   376)      1153.5  Rx         0040  8  61 09 00 01 81 00 00 B6 
   377)      1158.4  Rx         0151  8  3A 18 FF 7F FC 03 00 7D 
   378)      1163.4  Rx         0040  8  F8 08 00 01 81 00 00 B4 
   379)      1168.4  Rx         00A8  8  00 E0 FF D6 99 64 78 0E 
   380)      1170.8  Rx         01A0  8  E9 0D 71 F2 3F 00 00 00 
   381)      1171.1  Rx         01AC  8  09 1D FF A3 C3 FF 01 03 
   382)      1173.4  Rx         0151  8  17 15 FF FF FC 03 00 7D 
   383)      1178.5  Rx         01A0  8  FF 9F 0F C3 3F 00 00 00 
   384)      1183.4  Rx         01AC  8  E0 1F F0 03 42 E2 D1 02 
   385)      1188.4  Rx         018D  8  00 00 7D B3 00 00 3B 01 
   386)      1190.8  Rx         01A0  8  90 0E 71 F2 3F 00 00 00 
   387)      1191.1  Rx         01AC  8  6E 1E FF A3 C3 FF 01 03 
   388)      1193.4  Rx         00A8  8  00 E0 FF D6 99 64 6E 0E 
   389)      1198.5  Rx         00EE  8  00 00 00 00 00 00 40 8F 
   390)      1201.0  Rx     1B000085  8  85 40 04 01 00 00 00 00 
   391)      1203.4  Rx         0152  8  EF D9 CE 7C 3D D7 7E 9D 
   392)      1208.4  Rx         0151  8  92 16 FF 7F FC 03 00 7D 
   393)      1210.7  Rx         01A0  8  83 0F 71 F2 3F 00 00 00 
   394)      1211.0  Rx         01AC  8  2C 1F FF A3 C3 FF 01 03 
   395)      1214.8  Rx         018D  8  00 10 7D B3 00 00 3B 01 
   396)      1218.3  Rx         03A3  8  17 9D 2F 42 42 3F FE CB 
   397)      1223.4  Rx         00A8  8  00 E0 FF D6 99 64 66 0E 
   398)      1228.5  Rx         00EE  8  00 00 00 00 00 00 40 8F 
   399)      1231.0  Rx         01A0  8  74 00 71 F2 3F 00 00 00 
   400)      1231.2  Rx         01AC  8  8F 10 FF A3 C3 FF 01 03 
   401)      1231.4  Rx         02C0  8  E0 04 39 3F 60 1C 08 00 
   402)      1233.4  Rx         0152  8  A7 DA CE 7C 3D D4 7E 9D 
   403)      1238.3  Rx         03C0  4  9F 0D 23 00 
   404)      1243.4  Rx         00FD  8  05 E4 3F 00 00 00 00 00 
   405)      1248.4  Rx         0504  8  FF 06 00 00 26 11 14 11 
   406)      1250.7  Rx         01A0  8  C3 01 71 F2 3F 00 00 00 
   407)      1250.9  Rx         01AC  8  41 11 FF A3 C3 FF 01 03 
   408)      1253.4  Rx         0040  8  61 09 00 01 81 00 00 B6 
   409)      1258.4  Rx         0151  8  3A 18 FF 7F FC 03 00 7D 
   410)      1263.4  Rx         0040  8  F8 08 00 01 81 00 00 B4 
   411)      1268.3  Rx         00A8  8  00 E0 FF D6 99 64 78 0E 
   412)      1270.7  Rx         01A0  8  B2 02 71 F2 3F 00 00 00 
   413)      1271.0  Rx         01AC  8  BB 12 FF A3 C3 FF 01 03 
   414)      1273.4  Rx         0151  8  17 15 FF FF FC 03 00 7D 
   415)      1278.5  Rx         01A0  8  FF 9F 0F C3 3F 00 00 00 
   416)      1283.4  Rx         01AC  8  E0 1F F0 03 42 E2 D1 02 
   417)      1288.4  Rx         018D  8  00 00 7D B3 00 00 3B 01 
   418)      1290.7  Rx         01A0  8  C2 03 71 F2 3F 00 00 00 
   419)      1291.0  Rx         01AC  8  71 13 FF A3 C3 FF 01 03 
   420)      1293.4  Rx         00A8  8  00 E0 FF D6 99 64 6E 0E 
   421)      1298.5  Rx         00EE  8  00 00 00 00 00 00 40 8F 
   422)      1303.4  Rx         0152  8  EF D9 CE 7C 3D D7 7E 9D 
   423)      1308.4  Rx         0151  8  92 16 FF 7F FC 03 00 7D 
   424)      1310.8  Rx         01A0  8  CE 04 71 F2 3F 00 00 00 
   425)      1311.0  Rx         01AC  8  34 14 FF A3 C3 FF 01 03 
   426)      1311.2  Rx         02C0  8  F4 05 39 3F 60 1C 08 00 
   427)      1311.5  Rx     17F00085  8  20 85 00 00 00 00 01 80 
   428)      1311.8  Rx     1A5554A7  8  42 00 00 00 00 00 00 80 
   429)      1313.4  Rx         018D  8  00 10 7D B3 00 00 3B 01 
   430)      1318.4  Rx         03A3  8  17 9D 2F 42 42 3F FE CB 
   431)      1323.4  Rx         00A8  8  00 E0 FF D6 99 64 66 0E 
   432)      1328.4  Rx         00EE  8  00 00 00 00 00 00 40 8F 
   433)      1330.7  Rx         01A0  8  FB 05 71 F2 3F 00 00 00 
   434)      1330.9  Rx         01AC  8  95 15 FF A3 C3 FF 01 03 
   435)      1333.4  Rx         0152  8  A7 DA CE 7C 3D D4 7E 9D 
   436)      1338.3  Rx         03C0  4  9F 0D 23 00 
   437)      1343.4  Rx         00FD  8  05 E4 3F 00 00 00 00 00 
   438)      1348.3  Rx         0504  8  FF 06 00 00 26 11 14 11 
   439)      1351.5  Rx         01A0  8  D9 06 71 F2 3F 00 00 00 
   440)      1351.7  Rx         01AC  8  42 16 FF A3 C3 FF 01 03 
   441)      1353.4  Rx         0040  8  61 09 00 01 81 00 00 B6 
   442)      1358.4  Rx         0151  8  3A 18 FF 7F FC 03 00 7D 
   443)      1363.4  Rx         0040  8  F8 08 00 01 81 00 00 B4 
   444)      1368.4  Rx         00A8  8  00 E0 FF D6 99 64 78 0E 
   445)      1370.7  Rx         01A0  8  31 07 71 F2 3F 00 00 00 
   446)      1370.9  Rx         01AC  8  DD 17 FF A3 C3 FF 01 03 
   447)      1373.4  Rx         0151  8  17 15 FF FF FC 03 00 7D 
   448)      1378.4  Rx         01A0  8  FF 9F 0F C3 3F 00 00 00 
   449)      1383.4  Rx         01AC  8  E0 1F F0 03 42 E2 D1 02 
   450)      1388.4  Rx         018D  8  00 00 7D B3 00 00 3B 01 
   451)      1390.8  Rx         01A0  8  A0 08 71 F2 3F 00 00 00 
   452)      1391.1  Rx         01AC  8  32 18 FF A3 C3 FF 01 03 
   453)      1391.3  Rx         02C0  8  09 06 39 3F 60 1C 08 00 
   454)      1393.4  Rx         00A8  8  00 E0 FF D6 99 64 6E 0E 
   455)      1398.4  Rx         00EE  8  00 00 00 00 00 00 40 8F 
   456)      1400.9  Rx     1B000085  8  85 40 04 01 00 00 00 00 
   457)      1403.4  Rx         0152  8  EF D9 CE 7C 3D D7 7E 9D 
   458)      1408.4  Rx         0151  8  92 16 FF 7F FC 03 00 7D 
   459)      1410.8  Rx         01A0  8  36 09 71 F2 3F 00 00 00 
   460)      1411.0  Rx         01AC  8  F3 19 FF A3 C3 FF 01 03 
   461)      1413.4  Rx         018D  8  00 10 7D B3 00 00 3B 01 
   462)      1418.4  Rx         03A3  8  17 9D 2F 42 42 3F FE CB 
   463)      1423.4  Rx         00A8  8  00 E0 FF D6 99 64 66 0E 
   464)      1428.4  Rx         00EE  8  00 00 00 00 00 00 40 8F 
   465)      1430.7  Rx         01A0  8  14 0A 71 F2 3F 00 00 00 
   466)      1430.9  Rx         01AC  8  DF 1A FF A3 C3 FF 01 03 
   467)      1433.4  Rx         0152  8  A7 DA CE 7C 3D D4 7E 9D 
   468)      1438.2  Rx         03C0  4  9F 0D 23 00 
   469)      1443.4  Rx         00FD  8  05 E4 3F 00 00 00 00 00 
   470)      1448.4  Rx         0504  8  FF 06 00 00 26 11 14 11 
   471)      1451.1  Rx         01A0  8  71 0B 71 F2 3F 00 00 00 
   472)      1451.3  Rx         01AC  8  77 1B FF A3 C3 FF 01 03 
   473)      1453.4  Rx         0040  8  61 09 00 01 81 00 00 B6 
   474)      1458.4  Rx         0151  8  3A 18 FF 7F FC 03 00 7D 
   475)      1463.4  Rx         0040  8  F8 08 00 01 81 00 00 B4 
   476)      1468.4  Rx         00A8  8  00 E0 FF D6 99 64 78 0E 
   477)      1470.7  Rx         01A0  8  AB 0C 71 F2 3F 00 00 00 
   478)      1471.0  Rx         01AC  8  31 1C FF A3 C3 FF 01 03 
   479)      1471.2  Rx         02C0  8  A9 07 39 3F 60 1C 08 00 
   480)      1473.4  Rx         0151  8  17 15 FF FF FC 03 00 7D 
   481)      1478.4  Rx         01A0  8  FF 9F 0F C3 3F 00 00 00 
   482)      1483.4  Rx         01AC  8  E0 1F F0 03 42 E2 D1 02 
   483)      1488.4  Rx         018D  8  00 00 7D B3 00 00 3B 01 
   484)      1490.8  Rx         01A0  8  E9 0D 71 F2 3F 00 00 00 
   485)      1491.1  Rx         01AC  8  09 1D FF A3 C3 FF 01 03 
   486)      1493.4  Rx         00A8  8  00 E0 FF D6 99 64 6E 0E 
   487)      1498.4  Rx         00EE  8  00 00 00 00 00 00 40 8F 
   488)      1503.4  Rx         0152  8  EF D9 CE 7C 3D D7 7E 9D 
   489)      1508.4  Rx         0151  8  92 16 FF 7F FC 03 00 7D 
   490)      1511.1  Rx         01A0  8  90 0E 71 F2 3F 00 00 00 
   491)      1511.4  Rx         01AC  8  6E 1E FF A3 C3 FF 01 03 
   492)      1513.4  Rx         018D  8  00 10 7D B3 00 00 3B 01 
   493)      1518.4  Rx         03A3  8  17 9D 2F 42 42 3F FE CB 
   494)      1524.8  Rx         00A8  8  00 E0 FF D6 99 64 66 0E 
   495)      1528.4  Rx         00EE  8  00 00 00 00 00 00 40 8F 
   496)      1530.8  Rx         01A0  8  83 0F 71 F2 3F 00 00 00 
   497)      1531.0  Rx         01AC  8  2C 1F FF A3 C3 FF 01 03 
   498)      1533.4  Rx         0152  8  A7 DA CE 7C 3D D4 7E 9D 
   499)      1538.2  Rx         03C0  4  9F 0D 23 00 
   500)      1543.4  Rx         00FD  8  05 E4 3F 00 00 00 00 00 
   501)      1548.4  Rx         0504  8  FF 06 00 00 26 11 14 11 
   502)      1550.8  Rx         01A0  8  74 00 71 F2 3F 00 00 00 
   503)      1551.0  Rx         01AC  8  8F 10 FF A3 C3 FF 01 03 
   504)      1551.3  Rx         02C0  8  F8 08 39 3F 60 1C 08 00 
   505)      1553.4  Rx         0040  8  61 09 00 01 81 00 00 B6 
   506)      1558.4  Rx         0151  8  3A 18 FF 7F FC 03 00 7D 
   507)      1563.4  Rx         0040  8  F8 08 00 01 81 00 00 B4 
   508)      1568.4  Rx         00A8  8  00 E0 FF D6 99 64 78 0E 
   509)      1571.1  Rx         01A0  8  C3 01 71 F2 3F 00 00 00 
   510)      1571.4  Rx         01AC  8  41 11 FF A3 C3 FF 01 03 
   511)      1571.6  Rx     1A555510  8  02 30 35 32 37 00 00 00 
   512)      1573.4  Rx         0151  8  17 15 FF FF FC 03 00 7D 
   513)      1578.4  Rx         01A0  8  FF 9F 0F C3 3F 00 00 00 
   514)      1583.4  Rx         01AC  8  E0 1F F0 03 42 E2 D1 02 
   515)      1588.4  Rx         018D  8  00 00 7D B3 00 00 3B 01 
   516)      1590.7  Rx         01A0  8  B2 02 71 F2 3F 00 00 00 
   517)      1590.9  Rx         01AC  8  BB 12 FF A3 C3 FF 01 03 
   518)      1593.4  Rx         00A8  8  00 E0 FF D6 99 64 6E 0E 
   519)      1598.4  Rx         00EE  8  00 00 00 00 00 00 40 8F 
   520)      1600.7  Rx     1B000085  8  85 40 04 01 00 00 00 00 
   521)      1603.4  Rx         0152  8  EF D9 CE 7C 3D D7 7E 9D 
   522)      1608.4  Rx         0151  8  92 16 FF 7F FC 03 00 7D 
   523)      1610.7  Rx         01A0  8  C2 03 71 F2 3F 00 00 00 
   524)      1611.0  Rx         01AC  8  71 13 FF A3 C3 FF 01 03 
   525)      1613.4  Rx         018D  8  00 10 7D B3 00 00 3B 01 
   526)      1618.4  Rx         03A3  8  17 9D 2F 42 42 3F FE CB 
   527)      1623.4  Rx         00A8  8  00 E0 FF D6 99 64 66 0E 
   528)      1628.4  Rx         00EE  8  00 00 00 00 00 00 40 8F 
   529)      1630.8  Rx         01A0  8  CE 04 71 F2 3F 00 00 00 
   530)      1631.0  Rx         01AC  8  34 14 FF A3 C3 FF 01 03 
   531)      1631.3  Rx         02C0  8  0D 09 39 3F 60 1C 08 00 
   532)      1633.4  Rx         0152  8  A7 DA CE 7C 3D D4 7E 9D 
   533)      1638.2  Rx         03C0  4  9F 0D 23 00 
   534)      1643.4  Rx         00FD  8  05 E4 3F 00 00 00 00 00 
   535)      1648.4  Rx         0504  8  FF 06 00 00 26 11 14 11 
   536)      1650.0  Rx         0700  8  02 3E 80 FF FF FF FF FF 
   537)      1651.1  Rx         01A0  8  FB 05 71 F2 3F 00 00 00 
   538)      1651.4  Rx         01AC  8  95 15 FF A3 C3 FF 01 03 
   539)      1653.4  Rx         0040  8  61 09 00 01 81 00 00 B6 
   540)      1658.4  Rx         0151  8  3A 18 FF 7F FC 03 00 7D 
   541)      1663.4  Rx         0040  8  F8 08 00 01 81 00 00 B4 
   542)      1668.4  Rx         00A8  8  00 E0 FF D6 99 64 78 0E 
   543)      1670.9  Rx         01A0  8  D9 06 71 F2 3F 00 00 00 
   544)      1671.1  Rx         01AC  8  42 16 FF A3 C3 FF 01 03 
   545)      1673.4  Rx         0151  8  17 15 FF FF FC 03 00 7D 
   546)      1678.4  Rx         01A0  8  FF 9F 0F C3 3F 00 00 00 
   547)      1683.4  Rx         01AC  8  E0 1F F0 03 42 E2 D1 02 
   548)      1688.4  Rx         018D  8  00 00 7D B3 00 00 3B 01 
   549)      1691.2  Rx         01A0  8  31 07 71 F2 3F 00 00 00 
   550)      1691.4  Rx         01AC  8  DD 17 FF A3 C3 FF 01 03 
   551)      1693.4  Rx         00A8  8  00 E0 FF D6 99 64 6E 0E 
   552)      1698.4  Rx         00EE  8  00 00 00 00 00 00 40 8F 
   553)      1703.4  Rx         0152  8  EF D9 CE 7C 3D D7 7E 9D 
   554)      1708.4  Rx         0151  8  92 16 FF 7F FC 03 00 7D 
   555)      1710.7  Rx         01A0  8  A0 08 71 F2 3F 00 00 00 
   556)      1710.9  Rx         01AC  8  32 18 FF A3 C3 FF 01 03 
   557)      1711.2  Rx         02C0  8  B9 0A 39 3F 60 1C 08 00 
   558)      1713.4  Rx         018D  8  00 10 7D B3 00 00 3B 01 
   559)      1718.4  Rx         03A3  8  17 9D 2F 42 42 3F FE CB 
   560)      1723.4  Rx         00A8  8  00 E0 FF D6 99 64 66 0E 
   561)      1728.4  Rx         00EE  8  00 00 00 00 00 00 40 8F 
   562)      1730.8  Rx         01A0  8  36 09 71 F2 3F 00 00 00 
   563)      1731.0  Rx         01AC  8  F3 19 FF A3 C3 FF 01 03 
   564)      1733.4  Rx         0152  8  A7 DA CE 7C 3D D4 7E 9D 
   565)      1738.2  Rx         03C0  4  9F 0D 23 00 
   566)      1743.4  Rx         00FD  8  05 E4 3F 00 00 00 00 00 
   567)      1748.4  Rx         0504  8  FF 06 00 00 26 11 14 11 
   568)      1750.9  Rx         01A0  8  14 0A 71 F2 3F 00 00 00 
   569)      1751.1  Rx         01AC  8  DF 1A FF A3 C3 FF 01 03 
   570)      1753.4  Rx         0040  8  61 09 00 01 81 00 00 B6 
   571)      1758.4  Rx         0151  8  3A 18 FF 7F FC 03 00 7D 
   572)      1763.4  Rx         0040  8  F8 08 00 01 81 00 00 B4 
   573)      1768.4  Rx         00A8  8  00 E0 FF D6 99 64 78 0E 
   574)      1770.8  Rx         01A0  8  71 0B 71 F2 3F 00 00 00 
   575)      1771.0  Rx         01AC  8  77 1B FF A3 C3 FF 01 03 
   576)      1773.4  Rx         0151  8  17 15 FF FF FC 03 00 7D 
   577)      1778.4  Rx         01A0  8  FF 9F 0F C3 3F 00 00 00 
   578)      1783.4  Rx         01AC  8  E0 1F F0 03 42 E2 D1 02 
   579)      1788.4  Rx         018D  8  00 00 7D B3 00 00 3B 01 
   580)      1790.8  Rx         01A0  8  AB 0C 71 F2 3F 00 00 00 
   581)      1791.0  Rx         01AC  8  31 1C FF A3 C3 FF 01 03 
   582)      1791.3  Rx         02C0  8  FC 0B 39 3F 60 1C 08 00 
   583)      1793.4  Rx         00A8  8  00 E0 FF D6 99 64 6E 0E 
   584)      1798.4  Rx         00EE  8  00 00 00 00 00 00 40 8F 
   585)      1800.9  Rx     1B000085  8  85 40 04 01 00 00 00 00 
   586)      1803.4  Rx         0152  8  EF D9 CE 7C 3D D7 7E 9D 
   587)      1808.4  Rx         0151  8  92 16 FF 7F FC 03 00 7D 
   588)      1810.6  Rx         01A0  8  E9 0D 71 F2 3F 00 00 00 
   589)      1810.8  Rx         01AC  8  09 1D FF A3 C3 FF 01 03 
   590)      1811.1  Rx     17F00085  8  20 85 00 00 00 00 01 80 
   591)      1811.4  Rx     1A5554A7  8  42 00 00 00 00 00 00 80 
   592)      1813.4  Rx         018D  8  00 10 7D B3 00 00 3B 01 
   593)      1818.4  Rx         03A3  8  17 9D 2F 42 42 3F FE CB 
   594)      1823.4  Rx         00A8  8  00 E0 FF D6 99 64 66 0E 
   595)      1828.4  Rx         00EE  8  00 00 00 00 00 00 40 8F 
   596)      1830.9  Rx         01A0  8  90 0E 71 F2 3F 00 00 00 
   597)      1831.2  Rx         01AC  8  6E 1E FF A3 C3 FF 01 03 
   598)      1834.8  Rx         0152  8  A7 DA CE 7C 3D D4 7E 9D 
   599)      1838.2  Rx         03C0  4  9F 0D 23 00 
   600)      1843.4  Rx         00FD  8  05 E4 3F 00 00 00 00 00 
   601)      1848.4  Rx         0504  8  FF 06 00 00 26 11 14 11 
   602)      1850.7  Rx         01A0  8  83 0F 71 F2 3F 00 00 00 
   603)      1851.0  Rx         01AC  8  2C 1F FF A3 C3 FF 01 03 
   604)      1853.4  Rx         0040  8  61 09 00 01 81 00 00 B6 
   605)      1858.4  Rx         0151  8  3A 18 FF 7F FC 03 00 7D 
   606)      1863.4  Rx         0040  8  F8 08 00 01 81 00 00 B4 
   607)      1868.4  Rx         00A8  8  00 E0 FF D6 99 64 78 0E 
   608)      1871.0  Rx         01A0  8  74 00 71 F2 3F 00 00 00 
   609)      1871.2  Rx         01AC  8  8F 10 FF A3 C3 FF 01 03 
   610)      1871.5  Rx         02C0  8  A4 0C 39 3F 60 1C 08 00 
   611)      1873.4  Rx         0151  8  17 15 FF FF FC 03 00 7D 
   612)      1878.4  Rx         01A0  8  FF 9F 0F C3 3F 00 00 00 
   613)      1883.4  Rx         01AC  8  E0 1F F0 03 42 E2 D1 02 
   614)      1888.4  Rx         018D  8  00 00 7D B3 00 00 3B 01 
   615)      1890.8  Rx         01A0  8  C3 01 71 F2 3F 00 00 00 
   616)      1891.1  Rx         01AC  8  41 11 FF A3 C3 FF 01 03 
   617)      1893.4  Rx         00A8  8  00 E0 FF D6 99 64 6E 0E 
   618)      1898.4  Rx         00EE  8  00 00 00 00 00 00 40 8F 
   619)      1903.4  Rx         0152  8  EF D9 CE 7C 3D D7 7E 9D 
   620)      1908.4  Rx         0151  8  92 16 FF 7F FC 03 00 7D 
   621)      1910.7  Rx         01A0  8  B2 02 71 F2 3F 00 00 00 
   622)      1910.9  Rx         01AC  8  BB 12 FF A3 C3 FF 01 03 
   623)      1913.4  Rx         018D  8  00 10 7D B3 00 00 3B 01 
   624)      1918.4  Rx         03A3  8  17 9D 2F 42 42 3F FE CB 
   625)      1923.4  Rx         00A8  8  00 E0 FF D6 99 64 66 0E 
   626)      1928.4  Rx         00EE  8  00 00 00 00 00 00 40 8F 
   627)      1930.7  Rx         01A0  8  C2 03 71 F2 3F 00 00 00 
   628)      1931.0  Rx         01AC  8  71 13 FF A3 C3 FF 01 03 
   629)      1933.4  Rx         0152  8  A7 DA CE 7C 3D D4 7E 9D 
   630)      1938.2  Rx         03C0  4  9F 0D 23 00 
   631)      1943.4  Rx         00FD  8  05 E4 3F 00 00 00 00 00 
   632)      1948.4  Rx         0504  8  FF 06 00 00 26 11 14 11 
   633)      1950.7  Rx         01A0  8  CE 04 71 F2 3F 00 00 00 
   634)      1950.9  Rx         01AC  8  34 14 FF A3 C3 FF 01 03 
   635)      1951.2  Rx         02C0  8  CC 0D 39 3F 60 1C 08 00 
   636)      1953.4  Rx         0040  8  61 09 00 01 81 00 00 B6 
   637)      1958.4  Rx         0151  8  3A 18 FF 7F FC 03 00 7D 
   638)      1963.4  Rx         0040  8  F8 08 00 01 81 00 00 B4 
   639)      1968.4  Rx         00A8  8  00 E0 FF D6 99 64 78 0E 
   640)      1970.8  Rx         01A0  8  FB 05 71 F2 3F 00 00 00 
   641)      1971.0  Rx         01AC  8  95 15 FF A3 C3 FF 01 03 
   642)      1973.4  Rx         0151  8  17 15 FF FF FC 03 00 7D 
   643)      1978.4  Rx         01A0  8  FF 9F 0F C3 3F 00 00 00 
   644)      1983.4  Rx         01AC  8  E0 1F F0 03 42 E2 D1 02 
   645)      1988.4  Rx         018D  8  00 00 7D B3 00 00 3B 01 
   646)      1990.7  Rx         01A0  8  D9 06 71 F2 3F 00 00 00 
   647)      1990.9  Rx         01AC  8  42 16 FF A3 C3 FF 01 03 
   648)      1993.4  Rx         00A8  8  00 E0 FF D6 99 64 6E 0E 
   649)      1998.4  Rx         00EE  8  00 00 00 00 00 00 40 8F 
   650)      2001.0  Rx     1B000085  8  85 40 04 01 00 00 00 00 
   651)      2003.4  Rx         0152  8  EF D9 CE 7C 3D D7 7E 9D 
   652)      2008.4  Rx         0151  8  92 16 FF 7F FC 03 00 7D 
   653)      2010.9  Rx         01A0  8  31 07 71 F2 3F 00 00 00 
   654)      2011.1  Rx         01AC  8  DD 17 FF A3 C3 FF 01 03 
   655)      2013.4  Rx         018D  8  00 10 7D B3 00 00 3B 01 
   656)      2018.4  Rx         03A3  8  17 9D 2F 42 42 3F FE CB 
   657)      2023.4  Rx         00A8  8  00 E0 FF D6 99 64 66 0E 
   658)      2028.4  Rx         00EE  8  00 00 00 00 00 00 40 8F 
   659)      2030.7  Rx         01A0  8  A0 08 71 F2 3F 00 00 00 
   660)      2030.9  Rx         01AC  8  32 18 FF A3 C3 FF 01 03 
   661)      2031.1  Rx         02C0  8  52 0E 39 3F 60 1C 08 00 
   662)      2033.4  Rx         0152  8  A7 DA CE 7C 3D D4 7E 9D 
   663)      2038.2  Rx         03C0  4  9F 0D 23 00 
   664)      2043.4  Rx         00FD  8  05 E4 3F 00 00 00 00 00 
   665)      2048.4  Rx         0504  8  FF 06 00 00 26 11 14 11 
   666)      2050.9  Rx         01A0  8  36 09 71 F2 3F 00 00 00 
   667)      2051.1  Rx         01AC  8  F3 19 FF A3 C3 FF 01 03 
   668)      2053.4  Rx         0040  8  61 09 00 01 81 00 00 B6 
   669)      2058.4  Rx         0151  8  3A 18 FF 7F FC 03 00 7D 
   670)      2063.4  Rx         0040  8  F8 08 00 01 81 00 00 B4 
   671)      2068.4  Rx         00A8  8  00 E0 FF D6 99 64 78 0E 
   672)      2070.7  Rx         01A0  8  14 0A 71 F2 3F 00 00 00 
   673)      2071.0  Rx         01AC  8  DF 1A FF A3 C3 FF 01 03 
   674)      2073.4  Rx         0151  8  17 15 FF FF FC 03 00 7D 
   675)      2078.4  Rx         01A0  8  FF 9F 0F C3 3F 00 00 00 
   676)      2083.4  Rx         01AC  8  E0 1F F0 03 42 E2 D1 02 
   677)      2088.4  Rx         018D  8  00 00 7D B3 00 00 3B 01 
   678)      2090.7  Rx         01A0  8  71 0B 71 F2 3F 00 00 00 
   679)      2090.9  Rx         01AC  8  77 1B FF A3 C3 FF 01 03 
   680)      2093.4  Rx         00A8  8  00 E0 FF D6 99 64 6E 0E 
   681)      2098.4  Rx         00EE  8  00 00 00 00 00 00 40 8F 
   682)      2103.4  Rx         0152  8  EF D9 CE 7C 3D D7 7E 9D 
   683)      2108.4  Rx         0151  8  92 16 FF 7F FC 03 00 7D 
   684)      2110.7  Rx         01A0  8  AB 0C 71 F2 3F 00 00 00 
   685)      2110.9  Rx         01AC  8  31 1C FF A3 C3 FF 01 03 
   686)      2111.1  Rx         02C0  8  7E 0F 39 3F 60 1C 08 00 
   687)      2113.4  Rx         018D  8  00 10 7D B3 00 00 3B 01 
   688)      2118.4  Rx         03A3  8  17 9D 2F 42 42 3F FE CB 
   689)      2123.4  Rx         00A8  8  00 E0 FF D6 99 64 66 0E 
   690)      2128.4  Rx         00EE  8  00 00 00 00 00 00 40 8F 
   691)      2130.6  Rx         01A0  8  E9 0D 71 F2 3F 00 00 00 
   692)      2130.8  Rx         01AC  8  09 1D FF A3 C3 FF 01 03 
   693)      2133.4  Rx         0152  8  A7 DA CE 7C 3D D4 7E 9D 
   694)      2138.2  Rx         03C0  4  9F 0D 23 00 
   695)      2144.8  Rx         00FD  8  05 E4 3F 00 00 00 00 00 
   696)      2148.4  Rx         0504  8  FF 06 00 00 26 11 14 11 
   697)      2150.8  Rx         01A0  8  90 0E 71 F2 3F 00 00 00 
   698)      2151.0  Rx         01AC  8  6E 1E FF A3 C3 FF 01 03 
   699)      2153.4  Rx         0040  8  61 09 00 01 81 00 00 B6 
   700)      2158.4  Rx         0151  8  3A 18 FF 7F FC 03 00 7D 
   701)      2162.0  Rx         0700  8  02 3E 80 FF FF FF FF FF 
   702)      2163.4  Rx         0040  8  F8 08 00 01 81 00 00 B4 
   703)      2168.4  Rx         00A8  8  00 E0 FF D6 99 64 78 0E 
   704)      2171.0  Rx         01A0  8  83 0F 71 F2 3F 00 00 00 
   705)      2171.2  Rx         01AC  8  2C 1F FF A3 C3 FF 01 03 
   706)      2173.4  Rx         0151  8  17 15 FF FF FC 03 00 7D 
   707)      2178.4  Rx         01A0  8  FF 9F 0F C3 3F 00 00 00 
   708)      2183.4  Rx         01AC  8  E0 1F F0 03 42 E2 D1 02 
   709)      2188.4  Rx         018D  8  00 00 7D B3 00 00 3B 01 
   710)      2190.9  Rx         01A0  8  74 00 71 F2 3F 00 00 00 
   711)      2191.1  Rx         01AC  8  8F 10 FF A3 C3 FF 01 03 
   712)      2191.4  Rx         02C0  8  E6 00 39 3F 60 1C 08 00 
   713)      2193.4  Rx         00A8  8  00 E0 FF D6 99 64 6E 0E 
   714)      2198.4  Rx         00EE  8  00 00 00 00 00 00 40 8F 
   715)      2201.0  Rx     1B000085  8  85 40 04 01 00 00 00 00 
   716)      2203.4  Rx         0152  8  EF D9 CE 7C 3D D7 7E 9D 
   717)      2208.4  Rx         0151  8  92 16 FF 7F FC 03 00 7D 
   718)      2210.8  Rx         01A0  8  C3 01 71 F2 3F 00 00 00 
   719)      2211.1  Rx         01AC  8  41 11 FF A3 C3 FF 01 03 
   720)      2213.4  Rx         018D  8  00 10 7D B3 00 00 3B 01 
   721)      2218.4  Rx         03A3  8  17 9D 2F 42 42 3F FE CB 
   722)      2223.4  Rx         00A8  8  00 E0 FF D6 99 64 66 0E 
   723)      2228.4  Rx         00EE  8  00 00 00 00 00 00 40 8F 
   724)      2230.8  Rx         01A0  8  B2 02 71 F2 3F 00 00 00 
   725)      2231.0  Rx         01AC  8  BB 12 FF A3 C3 FF 01 03 
   726)      2233.4  Rx         0152  8  A7 DA CE 7C 3D D4 7E 9D 
   727)      2238.2  Rx         03C0  4  9F 0D 23 00 
   728)      2243.4  Rx         00FD  8  05 E4 3F 00 00 00 00 00 
   729)      2248.4  Rx         0504  8  FF 06 00 00 26 11 14 11 
   730)      2250.7  Rx         01A0  8  C2 03 71 F2 3F 00 00 00 
   731)      2250.9  Rx         01AC  8  71 13 FF A3 C3 FF 01 03 
   732)      2253.4  Rx         0040  8  61 09 00 01 81 00 00 B6 
   733)      2258.4  Rx         0151  8  3A 18 FF 7F FC 03 00 7D 
   734)      2263.4  Rx         0040  8  F8 08 00 01 81 00 00 B4 
   735)      2268.4  Rx         00A8  8  00 E0 FF D6 99 64 78 0E 
   736)      2270.9  Rx         01A0  8  CE 04 71 F2 3F 00 00 00 
   737)      2271.1  Rx         01AC  8  34 14 FF A3 C3 FF 01 03 
   738)      2271.4  Rx         02C0  8  3E 01 39 3F 60 1C 08 00 
   739)      2273.4  Rx         0151  8  17 15 FF FF FC 03 00 7D 
   740)      2278.4  Rx         01A0  8  FF 9F 0F C3 3F 00 00 00 
   741)      2283.4  Rx         01AC  8  E0 1F F0 03 42 E2 D1 02 
   742)      2288.4  Rx         018D  8  00 00 7D B3 00 00 3B 01 
   743)      2291.0  Rx         01A0  8  FB 05 71 F2 3F 00 00 00 
   744)      2291.2  Rx         01AC  8  95 15 FF A3 C3 FF 01 03 
   745)      2293.4  Rx         00A8  8  00 E0 FF D6 99 64 6E 0E 
   746)      2298.4  Rx         00EE  8  00 00 00 00 00 00 40 8F 
   747)      2303.4  Rx         0152  8  EF D9 CE 7C 3D D7 7E 9D 
   748)      2308.4  Rx         0151  8  92 16 FF 7F FC 03 00 7D 
   749)      2310.9  Rx         01A0  8  D9 06 71 F2 3F 00 00 00 
   750)      2311.2  Rx         01AC  8  42 16 FF A3 C3 FF 01 03 
   751)      2311.5  Rx     17F00085  8  20 85 00 00 00 00 01 80 
   752)      2311.8  Rx     1A5554A7  8  42 00 00 00 00 00 00 80 
   753)      2313.4  Rx         018D  8  00 10 7D B3 00 00 3B 01 
   754)      2318.4  Rx         03A3  8  17 9D 2F 42 42 3F FE CB 
