;$FILEVERSION=1.3
;$STARTTIME=45504.529587829129
;
;   Start time: 31/07/2024 12:42:36.388.4
;   Generated by PCAN-Explorer v6.5.2.2576
;-------------------------------------------------------------------------------
;   Bus  Connection   Net Connection      Protocol  Bit rate
;   1    Connection1  Untitled1@pcan_usb  CAN       500 kbit/s
;-------------------------------------------------------------------------------
;   Message   Time    Bus  Type   ID    Reserved
;   Number    Offset  |    |      [hex] |   Data Length Code
;   |         [ms]    |    |      |     |   |    Data [hex] ...
;   |         |       |    |      |     |   |    |
;---+-- ------+------ +- --+-- ---+---- +- -+-- -+ -- -- -- -- -- -- --
     1)         0.757 1  Rx        0152 -  8    A7 DA CE 7C 3D D4 7E 9D
     2)         5.663 1  Rx        03C0 -  4    9F 0D 23 00
     3)        10.825 1  Rx        01A0 -  8    B2 02 71 F2 3F 00 00 00
     4)        11.081 1  Rx        00FD -  8    05 E4 3F 00 00 00 00 00
     5)        11.295 1  Rx        01AC -  8    29 12 FF A3 C3 FF FD 02
     6)        15.860 1  Rx        0504 -  8    FF 06 00 00 26 11 14 11
     7)        20.851 1  Rx        0040 -  8    61 09 00 01 81 00 00 B6
     8)        25.758 1  Rx        0151 -  8    3A 18 FF 7F FC 03 00 7D
     9)        30.835 1  Rx        0040 -  8    F8 08 00 01 81 00 00 B4
    10)        31.091 1  Rx        01A0 -  8    C2 03 71 F2 3F 00 00 00
    11)        31.347 1  Rx        01AC -  8    E3 13 FF A3 C3 FF FD 02
    12)        35.826 1  Rx        00A8 -  8    00 E0 FF D6 99 64 78 0E
    13)        40.861 1  Rx        0151 -  8    17 15 FF FF FC 03 00 7D
    14)        45.852 1  Rx        01A0 -  8    FF 9F 0F C3 3F 00 00 00
    15)        50.972 1  Rx        01A0 -  8    CE 04 71 F2 3F 00 00 00
    16)        51.228 1  Rx        01AC -  8    A6 14 FF A3 C3 FF FD 02
    17)        51.441 1  Rx        02C0 -  8    B9 01 39 43 80 1C 0C 70
    18)        52.252 1  Rx        01AC -  8    E0 1F F0 03 42 E2 D1 02
    19)        55.836 1  Rx        018D -  8    00 00 7D B3 00 00 3B 01
    20)        60.772 1  Rx        00A8 -  8    00 E0 FF D6 99 64 6E 0E
    21)        65.892 1  Rx        00EE -  8    00 00 00 00 00 00 40 8F
    22)        70.756 1  Rx        0152 -  8    EF D9 CE 7C 3D D7 7E 9D
    23)        71.012 1  Rx        01A0 -  8    FB 05 71 F2 3F 00 00 00
    24)        71.225 1  Rx        01AC -  8    07 15 FF A3 C3 FF FD 02
    25)        75.747 1  Rx        0151 -  8    92 16 FF 7F FC 03 00 7D
    26)        80.867 1  Rx        018D -  8    00 10 7D B3 00 00 3B 01
    27)        85.773 1  Rx        03A3 -  8    17 9D 2F 42 42 3F FE CB
    28)        90.765 1  Rx        00A8 -  8    00 E0 FF D6 99 64 66 0E
    29)        91.021 1  Rx        01A0 -  8    D9 06 71 F2 3F 00 00 00
    30)        91.234 1  Rx        01AC -  8    D0 16 FF A3 C3 FF FD 02
    31)        95.885 1  Rx        00EE -  8    00 00 00 00 00 00 40 8F
    32)       100.748 1  Rx        0152 -  8    A7 DA CE 7C 3D D4 7E 9D
    33)       105.697 1  Rx        03C0 -  4    9F 0D 23 00
    34)       110.732 1  Rx        01A0 -  8    31 07 71 F2 3F 00 00 00
    35)       110.988 1  Rx        00FD -  8    05 E4 3F 00 00 00 00 00
    36)       111.244 1  Rx        01AC -  8    4F 17 FF A3 C3 FF FD 02
    37)       115.766 1  Rx        0504 -  8    FF 06 00 00 26 11 14 11
    38)       120.758 1  Rx        0040 -  8    61 09 00 01 81 00 00 B6
    39)       125.749 1  Rx        0151 -  8    3A 18 FF 7F FC 03 00 7D
    40)       130.869 1  Rx        0040 -  8    F8 08 00 01 81 00 00 B4
    41)       131.125 1  Rx        01A0 -  8    A0 08 71 F2 3F 00 00 00
    42)       131.338 1  Rx        01AC -  8    A0 18 FF A3 C3 FF FD 02
    43)       131.594 1  Rx        02C0 -  8    46 02 39 43 80 1C 0C 70
    44)       135.861 1  Rx        00A8 -  8    00 E0 FF D6 99 64 78 0E
    45)       140.767 1  Rx        0151 -  8    17 15 FF FF FC 03 00 7D
    46)       145.887 1  Rx        01A0 -  8    FF 9F 0F C3 3F 00 00 00
    47)       150.751 1  Rx        01AC -  8    E0 1F F0 03 42 E2 D1 02
    48)       151.007 1  Rx        01A0 -  8    36 09 71 F2 3F 00 00 00
    49)       151.220 1  Rx        01AC -  8    61 19 FF A3 C3 FF FD 02
    50)       155.785 1  Rx        018D -  8    00 00 7D B3 00 00 3B 01
    51)       160.777 1  Rx        00A8 -  8    00 E0 FF D6 99 64 6E 0E
    52)       165.854 1  Rx        00EE -  8    00 00 00 00 00 00 40 8F
    53)       170.760 1  Rx        0152 -  8    EF D9 CE 7C 3D D7 7E 9D
    54)       171.016 1  Rx        01A0 -  8    14 0A 71 F2 3F 00 00 00
    55)       171.229 1  Rx        01AC -  8    4D 1A FF A3 C3 FF FD 02
    56)       175.752 1  Rx        0151 -  8    92 16 FF 7F FC 03 00 7D
    57)       180.871 1  Rx        018D -  8    00 10 7D B3 00 00 3B 01
    58)       181.170 1  Rx    1B000085 -  8    85 40 04 03 00 00 00 00
    59)       185.735 1  Rx        03A3 -  8    17 9D 2F 42 42 3F FE CB
    60)       190.769 1  Rx        00A8 -  8    00 E0 FF D6 99 64 66 0E
    61)       190.983 1  Rx        01A0 -  8    71 0B 71 F2 3F 00 00 00
    62)       191.239 1  Rx        01AC -  8    E5 1B FF A3 C3 FF FD 02
    63)       191.537 1  Rx    17F00085 -  8    20 85 00 00 00 00 01 80
    64)       191.793 1  Rx    1A5554A7 -  8    42 00 00 00 00 00 00 80
    65)       195.889 1  Rx        00EE -  8    00 00 00 00 00 00 40 8F
    66)       200.753 1  Rx        0152 -  8    A7 DA CE 7C 3D D4 7E 9D
    67)       205.702 1  Rx        03C0 -  4    9F 0D 23 00
    68)       210.864 1  Rx        00FD -  8    05 E4 3F 00 00 00 00 00
    69)       211.120 1  Rx        01A0 -  8    AB 0C 71 F2 3F 00 00 00
    70)       211.333 1  Rx        01AC -  8    A3 1C FF A3 C3 FF FD 02
    71)       211.589 1  Rx        02C0 -  8    FE 03 39 43 80 1C 0C 70
    72)       215.770 1  Rx        0504 -  8    FF 06 00 00 26 11 14 11
    73)       220.762 1  Rx        0040 -  8    61 09 00 01 81 00 00 B6
    74)       225.754 1  Rx        0151 -  8    3A 18 FF 7F FC 03 00 7D
    75)       230.874 1  Rx        0040 -  8    F8 08 00 01 81 00 00 B4
    76)       231.087 1  Rx        01A0 -  8    E9 0D 71 F2 3F 00 00 00
    77)       231.343 1  Rx        01AC -  8    9B 1D FF A3 C3 FF FD 02
    78)       235.737 1  Rx        00A8 -  8    00 E0 FF D6 99 64 78 0E
    79)       237.273 1  Rx    17FC0085 -  8    10 09 2E F1 98 0A 2C 2F
    80)       237.614 1  Rx    17FE0085 -  8    30 0F 05 AA AA AA AA AA
    81)       239.449 1  Rx    17FC0085 -  8    21 CF 86 9F FF FF FF FF
    82)       239.833 1  Rx    17FE0085 -  8    03 6E F1 98 AA AA AA AA
    83)       240.857 1  Rx        0151 -  8    17 15 FF FF FC 03 00 7D
    84)       245.763 1  Rx        01A0 -  8    FF 9F 0F C3 3F 00 00 00
    85)       250.755 1  Rx        01AC -  8    E0 1F F0 03 42 E2 D1 02
    86)       251.011 1  Rx        01A0 -  8    90 0E 71 F2 3F 00 00 00
    87)       251.224 1  Rx        01AC -  8    FC 1E FF A3 C3 FF FD 02
    88)       255.747 1  Rx        018D -  8    00 00 7D B3 00 00 3B 01
    89)       260.738 1  Rx        00A8 -  8    00 E0 FF D6 99 64 6E 0E
    90)       265.858 1  Rx        00EE -  8    00 00 00 00 00 00 40 8F
    91)       270.679 1  Rx        01A0 -  8    83 0F 71 F2 3F 00 00 00
    92)       270.935 1  Rx        0152 -  8    EF D9 CE 7C 3D D7 7E 9D
    93)       271.191 1  Rx        01AC -  8    BE 1F FF A3 C3 FF FD 02
    94)       275.841 1  Rx        0151 -  8    92 16 FF 7F FC 03 00 7D
    95)       280.876 1  Rx        018D -  8    00 10 7D B3 00 00 3B 01
    96)       285.825 1  Rx        03A3 -  8    17 9D 2F 42 42 3F FE CB
    97)       290.859 1  Rx        00A8 -  8    00 E0 FF D6 99 64 66 0E
    98)       291.072 1  Rx        01A0 -  8    74 00 71 F2 3F 00 00 00
    99)       291.328 1  Rx        01AC -  8    1D 10 FF A3 C3 FF FD 02
   100)       291.542 1  Rx        02C0 -  8    67 04 39 43 80 1C 0C 70
   101)       295.851 1  Rx        00EE -  8    00 00 00 00 00 00 40 8F
   102)       300.842 1  Rx        0152 -  8    A7 DA CE 7C 3D D4 7E 9D
   103)       305.791 1  Rx        03C0 -  4    9F 0D 23 00
   104)       310.655 1  Rx        01A0 -  8    C3 01 71 F2 3F 00 00 00
   105)       310.911 1  Rx        00FD -  8    05 E4 3F 00 00 00 00 00
   106)       311.167 1  Rx        01AC -  8    D3 11 FF A3 C3 FF FD 02
   107)       315.860 1  Rx        0504 -  8    FF 06 00 00 26 11 14 11
   108)       320.852 1  Rx        0040 -  8    61 09 00 01 81 00 00 B6
   109)       325.844 1  Rx        0151 -  8    3A 18 FF 7F FC 03 00 7D
   110)       330.793 1  Rx        01A0 -  8    B2 02 71 F2 3F 00 00 00
   111)       331.049 1  Rx        0040 -  8    F8 08 00 01 81 00 00 B4
   112)       331.262 1  Rx        01AC -  8    29 12 FF A3 C3 FF FD 02
   113)       335.827 1  Rx        00A8 -  8    00 E0 FF D6 99 64 78 0E
   114)       340.861 1  Rx        0151 -  8    17 15 FF FF FC 03 00 7D
   115)       345.853 1  Rx        01A0 -  8    FF 9F 0F C3 3F 00 00 00
   116)       350.717 1  Rx        01A0 -  8    C2 03 71 F2 3F 00 00 00
   117)       351.698 1  Rx        01AC -  8    E0 1F F0 03 42 E2 D1 02
   118)       351.911 1  Rx        01AC -  8    E3 13 FF A3 C3 FF FD 02
   119)       355.836 1  Rx        018D -  8    00 00 7D B3 00 00 3B 01
   120)       362.236 1  Rx        00A8 -  8    00 E0 FF D6 99 64 6E 0E
   121)       365.862 1  Rx        00EE -  8    00 00 00 00 00 00 40 8F
   122)       370.683 1  Rx        01A0 -  8    CE 04 71 F2 3F 00 00 00
   123)       370.897 1  Rx        0152 -  8    EF D9 CE 7C 3D D7 7E 9D
   124)       371.153 1  Rx        01AC -  8    A6 14 FF A3 C3 FF FD 02
   125)       371.366 1  Rx        02C0 -  8    73 05 39 43 80 1C 0C 70
   126)       375.846 1  Rx        0151 -  8    92 16 FF 7F FC 03 00 7D
   127)       380.837 1  Rx        018D -  8    00 10 7D B3 00 00 3B 01
   128)       381.136 1  Rx    1B000085 -  8    85 40 04 03 00 00 00 00
   129)       385.829 1  Rx        03A3 -  8    17 9D 2F 42 42 3F FE CB
   130)       390.864 1  Rx        00A8 -  8    00 E0 FF D6 99 64 66 0E
   131)       391.077 1  Rx        01A0 -  8    FB 05 71 F2 3F 00 00 00
   132)       391.333 1  Rx        01AC -  8    07 15 FF A3 C3 FF FD 02
   133)       395.855 1  Rx        00EE -  8    00 00 00 00 00 00 40 8F
   134)       400.847 1  Rx        0152 -  8    A7 DA CE 7C 3D D4 7E 9D
   135)       405.753 1  Rx        03C0 -  4    9F 0D 23 00
   136)       410.702 1  Rx        01A0 -  8    D9 06 71 F2 3F 00 00 00
   137)       410.958 1  Rx        00FD -  8    05 E4 3F 00 00 00 00 00
   138)       411.172 1  Rx        01AC -  8    D0 16 FF A3 C3 FF FD 02
   139)       415.822 1  Rx        0504 -  8    FF 06 00 00 26 11 14 11
   140)       420.856 1  Rx        0040 -  8    61 09 00 01 81 00 00 B6
   141)       425.848 1  Rx        0151 -  8    3A 18 FF 7F FC 03 00 7D
   142)       430.840 1  Rx        01A0 -  8    31 07 71 F2 3F 00 00 00
   143)       431.053 1  Rx        0040 -  8    F8 08 00 01 81 00 00 B4
   144)       431.309 1  Rx        01AC -  8    4F 17 FF A3 C3 FF FD 02
   145)       435.831 1  Rx        00A8 -  8    00 E0 FF D6 99 64 78 0E
   146)       440.823 1  Rx        0151 -  8    17 15 FF FF FC 03 00 7D
   147)       445.857 1  Rx        01A0 -  8    FF 9F 0F C3 3F 00 00 00
   148)       450.678 1  Rx        01A0 -  8    A0 08 71 F2 3F 00 00 00
   149)       451.105 1  Rx        01AC -  8    E0 1F F0 03 42 E2 D1 02
   150)       451.318 1  Rx        01AC -  8    A0 18 FF A3 C3 FF FD 02
   151)       451.574 1  Rx        02C0 -  8    8E 06 39 43 80 1C 0C 70
   152)       455.841 1  Rx        018D -  8    00 00 7D B3 00 00 3B 01
   153)       460.832 1  Rx        00A8 -  8    00 E0 FF D6 99 64 6E 0E
   154)       465.867 1  Rx        00EE -  8    00 00 00 00 00 00 40 8F
   155)       470.816 1  Rx        0152 -  8    EF D9 CE 7C 3D D7 7E 9D
   156)       471.072 1  Rx        01A0 -  8    36 09 71 F2 3F 00 00 00
   157)       471.328 1  Rx        01AC -  8    61 19 FF A3 C3 FF FD 02
   158)       475.850 1  Rx        0151 -  8    92 16 FF 7F FC 03 00 7D
   159)       480.842 1  Rx        018D -  8    00 10 7D B3 00 00 3B 01
   160)       485.834 1  Rx        03A3 -  8    17 9D 2F 42 42 3F FE CB
   161)       490.825 1  Rx        01A0 -  8    14 0A 71 F2 3F 00 00 00
   162)       491.039 1  Rx        00A8 -  8    00 E0 FF D6 99 64 66 0E
   163)       491.295 1  Rx        01AC -  8    4D 1A FF A3 C3 FF FD 02
   164)       495.860 1  Rx        00EE -  8    00 00 00 00 00 00 40 8F
   165)       499.870 1  Rx    17FC0085 -  8    06 2E F1 99 24 07 31 FF
   166)       500.809 1  Rx        0152 -  8    A7 DA CE 7C 3D D4 7E 9D
   167)       505.758 1  Rx        03C0 -  4    9F 0D 23 00
   168)       509.640 1  Rx    17FE0085 -  8    03 6E F1 99 AA AA AA AA
   169)       510.835 1  Rx        00FD -  8    05 E4 3F 00 00 00 00 00
   170)       511.091 1  Rx        01A0 -  8    71 0B 71 F2 3F 00 00 00
   171)       511.304 1  Rx        01AC -  8    E5 1B FF A3 C3 FF FD 02
   172)       515.826 1  Rx        0504 -  8    FF 06 00 00 26 11 14 11
   173)       520.818 1  Rx        0040 -  8    61 09 00 01 81 00 00 B6
   174)       525.810 1  Rx        0151 -  8    3A 18 FF 7F FC 03 00 7D
   175)       530.844 1  Rx        0040 -  8    F8 08 00 01 81 00 00 B4
   176)       531.057 1  Rx        01A0 -  8    AB 0C 71 F2 3F 00 00 00
   177)       531.313 1  Rx        01AC -  8    A3 1C FF A3 C3 FF FD 02
   178)       531.569 1  Rx        02C0 -  8    2E 07 39 43 80 1C 0C 70
   179)       535.836 1  Rx        00A8 -  8    00 E0 FF D6 99 64 78 0E
   180)       540.827 1  Rx        0151 -  8    17 15 FF FF FC 03 00 7D
   181)       545.819 1  Rx        01A0 -  8    FF 9F 0F C3 3F 00 00 00
   182)       550.811 1  Rx        01AC -  8    E0 1F F0 03 42 E2 D1 02
   183)       551.067 1  Rx        01A0 -  8    E9 0D 71 F2 3F 00 00 00
   184)       551.323 1  Rx        01AC -  8    9B 1D FF A3 C3 FF FD 02
   185)       555.845 1  Rx        018D -  8    00 00 7D B3 00 00 3B 01
   186)       560.837 1  Rx        00A8 -  8    00 E0 FF D6 99 64 6E 0E
   187)       565.829 1  Rx        00EE -  8    00 00 00 00 00 00 40 8F
   188)       570.820 1  Rx        01A0 -  8    90 0E 71 F2 3F 00 00 00
   189)       571.076 1  Rx        0152 -  8    EF D9 CE 7C 3D D7 7E 9D
   190)       571.290 1  Rx        01AC -  8    FC 1E FF A3 C3 FF FD 02
   191)       575.812 1  Rx        0151 -  8    92 16 FF 7F FC 03 00 7D
   192)       580.846 1  Rx    1B000085 -  8    85 40 04 03 00 00 00 00
   193)       581.102 1  Rx        018D -  8    00 10 7D B3 00 00 3B 01
   194)       585.838 1  Rx        03A3 -  8    17 9D 2F 42 42 3F FE CB
   195)       590.830 1  Rx        00A8 -  8    00 E0 FF D6 99 64 66 0E
   196)       591.043 1  Rx        01A0 -  8    83 0F 71 F2 3F 00 00 00
   197)       591.299 1  Rx        01AC -  8    BE 1F FF A3 C3 FF FD 02
   198)       595.821 1  Rx        00EE -  8    00 00 00 00 00 00 40 8F
   199)       600.813 1  Rx        0152 -  8    A7 DA CE 7C 3D D4 7E 9D
   200)       605.847 1  Rx        03C0 -  4    9F 0D 23 00
   201)       610.839 1  Rx        00FD -  8    05 E4 3F 00 00 00 00 00
   202)       611.052 1  Rx        01A0 -  8    74 00 71 F2 3F 00 00 00
   203)       611.308 1  Rx        01AC -  8    1D 10 FF A3 C3 FF FD 02
   204)       611.564 1  Rx        02C0 -  8    7F 08 39 43 80 1C 0C 70
   205)       615.831 1  Rx        0504 -  8    FF 06 00 00 26 11 14 11
   206)       620.822 1  Rx        0040 -  8    61 09 00 01 81 00 00 B6
   207)       625.814 1  Rx        0151 -  8    3A 18 FF 7F FC 03 00 7D
   208)       630.849 1  Rx        0040 -  8    F8 08 00 01 81 00 00 B4
   209)       631.062 1  Rx        01A0 -  8    C3 01 71 F2 3F 00 00 00
   210)       631.318 1  Rx        01AC -  8    D3 11 FF A3 C3 FF FD 02
   211)       631.574 1  Rx    1A555510 -  8    82 30 35 32 37 CC 00 00
   212)       635.840 1  Rx        00A8 -  8    00 E0 FF D6 99 64 78 0E
   213)       640.832 1  Rx        0151 -  8    17 15 FF FF FC 03 00 7D
   214)       645.824 1  Rx        01A0 -  8    FF 9F 0F C3 3F 00 00 00
   215)       650.815 1  Rx        01AC -  8    E0 1F F0 03 42 E2 D1 02
   216)       651.071 1  Rx        01A0 -  8    B2 02 71 F2 3F 00 00 00
   217)       651.285 1  Rx        01AC -  8    29 12 FF A3 C3 FF FD 02
   218)       655.807 1  Rx        018D -  8    00 00 7D B3 00 00 3B 01
   219)       660.799 1  Rx        00A8 -  8    00 E0 FF D6 99 64 6E 0E
   220)       665.833 1  Rx        00EE -  8    00 00 00 00 00 00 40 8F
   221)       670.867 1  Rx        01A0 -  8    C2 03 71 F2 3F 00 00 00
   222)       671.123 1  Rx        01AC -  8    E3 13 FF A3 C3 FF FD 02
   223)       672.233 1  Rx        0152 -  8    EF D9 CE 7C 3D D7 7E 9D
   224)       675.816 1  Rx        0151 -  8    92 16 FF 7F FC 03 00 7D
   225)       680.808 1  Rx        018D -  8    00 10 7D B3 00 00 3B 01
   226)       685.800 1  Rx        03A3 -  8    17 9D 2F 42 42 3F FE CB
   227)       690.834 1  Rx        00A8 -  8    00 E0 FF D6 99 64 66 0E
   228)       691.047 1  Rx        01A0 -  8    CE 04 71 F2 3F 00 00 00
   229)       691.303 1  Rx        01AC -  8    A6 14 FF A3 C3 FF FD 02
   230)       691.517 1  Rx        02C0 -  8    8A 09 39 43 80 1C 0C 70
   231)       691.815 1  Rx    17F00085 -  8    20 85 00 00 00 00 01 80
   232)       692.114 1  Rx    1A5554A7 -  8    42 00 00 00 00 00 00 80
   233)       695.826 1  Rx        00EE -  8    00 00 00 00 00 00 40 8F
   234)       700.817 1  Rx        0152 -  8    A7 DA CE 7C 3D D4 7E 9D
   235)       705.639 1  Rx        03C0 -  4    9F 0D 23 00
   236)       710.801 1  Rx        00FD -  8    05 E4 3F 00 00 00 00 00
   237)       711.057 1  Rx        01A0 -  8    FB 05 71 F2 3F 00 00 00
   238)       711.313 1  Rx        01AC -  8    07 15 FF A3 C3 FF FD 02
   239)       715.835 1  Rx        0504 -  8    FF 06 00 00 26 11 14 11
   240)       720.827 1  Rx        0040 -  8    61 09 00 01 81 00 00 B6
   241)       725.819 1  Rx        0151 -  8    3A 18 FF 7F FC 03 00 7D
   242)       730.810 1  Rx        0040 -  8    F8 08 00 01 81 00 00 B4
   243)       731.066 1  Rx        01A0 -  8    D9 06 71 F2 3F 00 00 00
   244)       731.280 1  Rx        01AC -  8    D0 16 FF A3 C3 FF FD 02
   245)       735.802 1  Rx        00A8 -  8    00 E0 FF D6 99 64 78 0E
   246)       740.794 1  Rx        0151 -  8    17 15 FF FF FC 03 00 7D
   247)       745.828 1  Rx        01A0 -  8    FF 9F 0F C3 3F 00 00 00
   248)       750.692 1  Rx        01A0 -  8    31 07 71 F2 3F 00 00 00
   249)       751.332 1  Rx        01AC -  8    E0 1F F0 03 42 E2 D1 02
   250)       751.588 1  Rx        01AC -  8    4F 17 FF A3 C3 FF FD 02
   251)       755.811 1  Rx        018D -  8    00 00 7D B3 00 00 3B 01
   252)       760.803 1  Rx        00A8 -  8    00 E0 FF D6 99 64 6E 0E
   253)       765.411 1  Rx    17FC0085 -  8    03 22 F1 9E FF FF FF FF
   254)       765.837 1  Rx        00EE -  8    00 00 00 00 00 00 40 8F
   255)       769.677 1  Rx    17FE0085 -  8    10 14 62 F1 9E 45 56 5F
   256)       770.402 1  Rx    17FC0085 -  8    30 00 00 FF FF FF FF FF
   257)       770.701 1  Rx    17FE0085 -  8    21 53 74 61 72 74 34 38
   258)       770.957 1  Rx        0152 -  8    EF D9 CE 7C 3D D7 7E 9D
   259)       771.213 1  Rx    17FE0085 -  8    22 56 41 55 36 35 31 00
   260)       771.469 1  Rx        01A0 -  8    A0 08 71 F2 3F 00 00 00
   261)       771.725 1  Rx        01AC -  8    A0 18 FF A3 C3 FF FD 02
   262)       771.981 1  Rx        02C0 -  8    3E 0A 39 43 80 1C 0C 70
   263)       775.821 1  Rx        0151 -  8    92 16 FF 7F FC 03 00 7D
   264)       780.812 1  Rx        018D -  8    00 10 7D B3 00 00 3B 01
   265)       781.111 1  Rx    1B000085 -  8    85 40 04 03 00 00 00 00
   266)       785.804 1  Rx        03A3 -  8    17 9D 2F 42 42 3F FE CB
   267)       790.796 1  Rx        00A8 -  8    00 E0 FF D6 99 64 66 0E
   268)       791.052 1  Rx        01A0 -  8    36 09 71 F2 3F 00 00 00
   269)       791.308 1  Rx        01AC -  8    61 19 FF A3 C3 FF FD 02
   270)       795.830 1  Rx        00EE -  8    00 00 00 00 00 00 40 8F
   271)       800.822 1  Rx        0152 -  8    A7 DA CE 7C 3D D4 7E 9D
   272)       805.643 1  Rx        03C0 -  4    9F 0D 23 00
   273)       810.720 1  Rx        01A0 -  8    14 0A 71 F2 3F 00 00 00
   274)       810.976 1  Rx        00FD -  8    05 E4 3F 00 00 00 00 00
   275)       811.189 1  Rx        01AC -  8    4D 1A FF A3 C3 FF FD 02
   276)       815.797 1  Rx        0504 -  8    FF 06 00 00 26 11 14 11
   277)       820.831 1  Rx        0040 -  8    61 09 00 01 81 00 00 B6
   278)       825.823 1  Rx        0151 -  8    3A 18 FF 7F FC 03 00 7D
   279)       830.815 1  Rx        0040 -  8    F8 08 00 01 81 00 00 B4
   280)       831.071 1  Rx        01A0 -  8    71 0B 71 F2 3F 00 00 00
   281)       831.284 1  Rx        01AC -  8    E5 1B FF A3 C3 FF FD 02
   282)       835.806 1  Rx        00A8 -  8    00 E0 FF D6 99 64 78 0E
   283)       840.798 1  Rx        0151 -  8    17 15 FF FF FC 03 00 7D
   284)       845.790 1  Rx        01A0 -  8    FF 9F 0F C3 3F 00 00 00
   285)       850.781 1  Rx        01AC -  8    E0 1F F0 03 42 E2 D1 02
   286)       851.037 1  Rx        01A0 -  8    AB 0C 71 F2 3F 00 00 00
   287)       851.293 1  Rx        01AC -  8    A3 1C FF A3 C3 FF FD 02
   288)       851.507 1  Rx        02C0 -  8    7B 0B 39 43 80 1C 0C 70
   289)       855.816 1  Rx        018D -  8    00 00 7D B3 00 00 3B 01
   290)       860.807 1  Rx        00A8 -  8    00 E0 FF D6 99 64 6E 0E
   291)       865.799 1  Rx        00EE -  8    00 00 00 00 00 00 40 8F
   292)       870.791 1  Rx        01A0 -  8    E9 0D 71 F2 3F 00 00 00
   293)       871.004 1  Rx        0152 -  8    EF D9 CE 7C 3D D7 7E 9D
   294)       871.260 1  Rx        01AC -  8    9B 1D FF A3 C3 FF FD 02
   295)       875.783 1  Rx        0151 -  8    92 16 FF 7F FC 03 00 7D
   296)       880.817 1  Rx        018D -  8    00 10 7D B3 00 00 3B 01
   297)       885.809 1  Rx        03A3 -  8    17 9D 2F 42 42 3F FE CB
   298)       890.800 1  Rx        00A8 -  8    00 E0 FF D6 99 64 66 0E
   299)       891.056 1  Rx        01A0 -  8    90 0E 71 F2 3F 00 00 00
   300)       891.270 1  Rx        01AC -  8    FC 1E FF A3 C3 FF FD 02
   301)       895.792 1  Rx        00EE -  8    00 00 00 00 00 00 40 8F
   302)       900.784 1  Rx        0152 -  8    A7 DA CE 7C 3D D4 7E 9D
   303)       905.647 1  Rx        03C0 -  4    9F 0D 23 00
   304)       910.810 1  Rx        00FD -  8    05 E4 3F 00 00 00 00 00
   305)       911.023 1  Rx        01A0 -  8    83 0F 71 F2 3F 00 00 00
   306)       911.279 1  Rx        01AC -  8    BE 1F FF A3 C3 FF FD 02
   307)       915.801 1  Rx        0504 -  8    FF 06 00 00 26 11 14 11
   308)       920.793 1  Rx        0040 -  8    61 09 00 01 81 00 00 B6
   309)       925.785 1  Rx        0151 -  8    3A 18 FF 7F FC 03 00 7D
   310)       930.776 1  Rx        01A0 -  8    74 00 71 F2 3F 00 00 00
   311)       931.032 1  Rx        0040 -  8    F8 08 00 01 81 00 00 B4
   312)       931.288 1  Rx        01AC -  8    1D 10 FF A3 C3 FF FD 02
   313)       931.502 1  Rx        02C0 -  8    23 0C 39 43 80 1C 0C 70
   314)       935.811 1  Rx        00A8 -  8    00 E0 FF D6 99 64 78 0E
   315)       940.802 1  Rx        0151 -  8    17 15 FF FF FC 03 00 7D
   316)       945.794 1  Rx        01A0 -  8    FF 9F 0F C3 3F 00 00 00
   317)       950.786 1  Rx        01AC -  8    E0 1F F0 03 42 E2 D1 02
   318)       951.042 1  Rx        01A0 -  8    C3 01 71 F2 3F 00 00 00
   319)       951.255 1  Rx        01AC -  8    D3 11 FF A3 C3 FF FD 02
   320)       955.778 1  Rx        018D -  8    00 00 7D B3 00 00 3B 01
   321)       960.812 1  Rx        00A8 -  8    00 E0 FF D6 99 64 6E 0E
   322)       965.804 1  Rx        00EE -  8    00 00 00 00 00 00 40 8F
   323)       970.753 1  Rx        01A0 -  8    B2 02 71 F2 3F 00 00 00
   324)       971.009 1  Rx        0152 -  8    EF D9 CE 7C 3D D7 7E 9D
   325)       971.265 1  Rx        01AC -  8    29 12 FF A3 C3 FF FD 02
   326)       977.195 1  Rx        0151 -  8    92 16 FF 7F FC 03 00 7D
   327)       980.779 1  Rx    1B000085 -  8    85 40 04 03 00 00 00 00
   328)       980.992 1  Rx        018D -  8    00 10 7D B3 00 00 3B 01
   329)       985.770 1  Rx        03A3 -  8    17 9D 2F 42 42 3F FE CB
   330)       990.805 1  Rx        00A8 -  8    00 E0 FF D6 99 64 66 0E
   331)       991.018 1  Rx        01A0 -  8    C2 03 71 F2 3F 00 00 00
   332)       991.274 1  Rx        01AC -  8    E3 13 FF A3 C3 FF FD 02
   333)       995.796 1  Rx        00EE -  8    00 00 00 00 00 00 40 8F
   334)      1000.788 1  Rx        0152 -  8    A7 DA CE 7C 3D D4 7E 9D
   335)      1005.609 1  Rx        03C0 -  4    9F 0D 23 00
   336)      1010.729 1  Rx        01A0 -  8    CE 04 71 F2 3F 00 00 00
   337)      1010.942 1  Rx        00FD -  8    05 E4 3F 00 00 00 00 00
   338)      1011.198 1  Rx        01AC -  8    A6 14 FF A3 C3 FF FD 02
   339)      1011.411 1  Rx        02C0 -  8    4B 0D 39 43 80 1C 0C 70
   340)      1015.806 1  Rx        0504 -  8    FF 06 00 00 26 11 14 11
   341)      1020.797 1  Rx        0040 -  8    61 09 00 01 81 00 00 B6
   342)      1025.789 1  Rx        0151 -  8    3A 18 FF 7F FC 03 00 7D
   343)      1030.781 1  Rx        0040 -  8    F8 08 00 01 81 00 00 B4
   344)      1031.037 1  Rx        01A0 -  8    FB 05 71 F2 3F 00 00 00
   345)      1031.293 1  Rx        01AC -  8    07 15 FF A3 C3 FF FD 02
   346)      1031.549 1  Rx    17FC0085 -  8    03 22 F1 A2 FF FF FF FF
   347)      1035.773 1  Rx        00A8 -  8    00 E0 FF D6 99 64 78 0E
   348)      1039.698 1  Rx    17FE0085 -  8    10 09 62 F1 A2 30 30 32
   349)      1040.423 1  Rx    17FC0085 -  8    30 00 00 FF FF FF FF FF
   350)      1040.679 1  Rx    17FE0085 -  8    21 30 30 37 AA AA AA AA
   351)      1040.935 1  Rx        0151 -  8    17 15 FF FF FC 03 00 7D
   352)      1045.799 1  Rx        01A0 -  8    FF 9F 0F C3 3F 00 00 00
   353)      1050.705 1  Rx        01A0 -  8    D9 06 71 F2 3F 00 00 00
   354)      1051.388 1  Rx        01AC -  8    E0 1F F0 03 42 E2 D1 02
   355)      1051.601 1  Rx        01AC -  8    D0 16 FF A3 C3 FF FD 02
   356)      1055.782 1  Rx        018D -  8    00 00 7D B3 00 00 3B 01
   357)      1060.770 1  Rx        00A8 -  8    00 E0 FF D6 99 64 6E 0E
   358)      1065.804 1  Rx        00EE -  8    00 00 00 00 00 00 40 8F
   359)      1070.582 1  Rx        01A0 -  8    31 07 71 F2 3F 00 00 00
   360)      1070.838 1  Rx        0152 -  8    EF D9 CE 7C 3D D7 7E 9D
   361)      1071.052 1  Rx        01AC -  8    4F 17 FF A3 C3 FF FD 02
   362)      1075.787 1  Rx        0151 -  8    92 16 FF 7F FC 03 00 7D
   363)      1080.779 1  Rx        018D -  8    00 10 7D B3 00 00 3B 01
   364)      1085.771 1  Rx        03A3 -  8    17 9D 2F 42 42 3F FE CB
   365)      1090.762 1  Rx        01A0 -  8    A0 08 71 F2 3F 00 00 00
   366)      1090.976 1  Rx        00A8 -  8    00 E0 FF D6 99 64 66 0E
   367)      1091.232 1  Rx        01AC -  8    A0 18 FF A3 C3 FF FD 02
   368)      1091.488 1  Rx        02C0 -  8    D5 0E 39 43 80 1C 0C 70
   369)      1095.797 1  Rx        00EE -  8    00 00 00 00 00 00 40 8F
   370)      1100.788 1  Rx        0152 -  8    A7 DA CE 7C 3D D4 7E 9D
   371)      1105.610 1  Rx        03C0 -  4    9F 0D 23 00
   372)      1110.559 1  Rx        01A0 -  8    36 09 71 F2 3F 00 00 00
   373)      1110.815 1  Rx        00FD -  8    05 E4 3F 00 00 00 00 00
   374)      1111.028 1  Rx        01AC -  8    61 19 FF A3 C3 FF FD 02
   375)      1115.764 1  Rx        0504 -  8    FF 06 00 00 26 11 14 11
   376)      1120.798 1  Rx        0040 -  8    61 09 00 01 81 00 00 B6
   377)      1125.790 1  Rx        0151 -  8    3A 18 FF 7F FC 03 00 7D
   378)      1130.781 1  Rx        0040 -  8    F8 08 00 01 81 00 00 B4
   379)      1131.037 1  Rx        01A0 -  8    14 0A 71 F2 3F 00 00 00
   380)      1131.251 1  Rx        01AC -  8    4D 1A FF A3 C3 FF FD 02
   381)      1135.773 1  Rx        00A8 -  8    00 E0 FF D6 99 64 78 0E
   382)      1140.765 1  Rx        0151 -  8    17 15 FF FF FC 03 00 7D
   383)      1145.799 1  Rx        01A0 -  8    FF 9F 0F C3 3F 00 00 00
   384)      1150.791 1  Rx        01AC -  8    E0 1F F0 03 42 E2 D1 02
   385)      1151.004 1  Rx        01A0 -  8    71 0B 71 F2 3F 00 00 00
   386)      1151.260 1  Rx        01AC -  8    E5 1B FF A3 C3 FF FD 02
   387)      1155.782 1  Rx        018D -  8    00 00 7D B3 00 00 3B 01
   388)      1160.774 1  Rx        00A8 -  8    00 E0 FF D6 99 64 6E 0E
   389)      1165.766 1  Rx        00EE -  8    00 00 00 00 00 00 40 8F
   390)      1170.629 1  Rx        01A0 -  8    AB 0C 71 F2 3F 00 00 00
   391)      1170.885 1  Rx        0152 -  8    EF D9 CE 7C 3D D7 7E 9D
   392)      1171.099 1  Rx        01AC -  8    A3 1C FF A3 C3 FF FD 02
   393)      1171.355 1  Rx        02C0 -  8    F9 0F 39 43 80 1C 0C 70
   394)      1175.749 1  Rx        0151 -  8    92 16 FF 7F FC 03 00 7D
   395)      1180.783 1  Rx        018D -  8    00 10 7D B3 00 00 3B 01
   396)      1181.039 1  Rx    1B000085 -  8    85 40 04 03 00 00 00 00
   397)      1185.775 1  Rx        03A3 -  8    17 9D 2F 42 42 3F FE CB
   398)      1190.511 1  Rx        01A0 -  8    E9 0D 71 F2 3F 00 00 00
   399)      1190.767 1  Rx        01AC -  8    9B 1D FF A3 C3 FF FD 02
   400)      1190.980 1  Rx        00A8 -  8    00 E0 FF D6 99 64 66 0E
   401)      1191.279 1  Rx    17F00085 -  8    20 85 00 00 00 00 01 80
   402)      1191.577 1  Rx    1A5554A7 -  8    42 00 00 00 00 00 00 80
   403)      1195.759 1  Rx        00EE -  8    00 00 00 00 00 00 40 8F
   404)      1200.750 1  Rx        0152 -  8    A7 DA CE 7C 3D D4 7E 9D
   405)      1205.614 1  Rx        03C0 -  4    9F 0D 23 00
   406)      1210.691 1  Rx        01A0 -  8    90 0E 71 F2 3F 00 00 00
   407)      1210.947 1  Rx        00FD -  8    05 E4 3F 00 00 00 00 00
   408)      1211.203 1  Rx        01AC -  8    FC 1E FF A3 C3 FF FD 02
   409)      1215.768 1  Rx        0504 -  8    FF 06 00 00 26 11 14 11
   410)      1220.760 1  Rx        0040 -  8    61 09 00 01 81 00 00 B6
   411)      1225.751 1  Rx        0151 -  8    3A 18 FF 7F FC 03 00 7D
   412)      1230.786 1  Rx        0040 -  8    F8 08 00 01 81 00 00 B4
   413)      1230.999 1  Rx        01A0 -  8    83 0F 71 F2 3F 00 00 00
   414)      1231.255 1  Rx        01AC -  8    BE 1F FF A3 C3 FF FD 02
   415)      1235.777 1  Rx        00A8 -  8    00 E0 FF D6 99 64 78 0E
   416)      1240.769 1  Rx        0151 -  8    17 15 FF FF FC 03 00 7D
   417)      1245.761 1  Rx        01A0 -  8    FF 9F 0F C3 3F 00 00 00
   418)      1250.710 1  Rx        01A0 -  8    74 00 71 F2 3F 00 00 00
   419)      1251.179 1  Rx        01AC -  8    E0 1F F0 03 42 E2 D1 02
   420)      1251.392 1  Rx        01AC -  8    1D 10 FF A3 C3 FF FD 02
   421)      1251.648 1  Rx        02C0 -  8    61 00 39 43 80 1C 0C 70
   422)      1255.787 1  Rx        018D -  8    00 00 7D B3 00 00 3B 01
   423)      1260.778 1  Rx        00A8 -  8    00 E0 FF D6 99 64 6E 0E
   424)      1265.770 1  Rx        00EE -  8    00 00 00 00 00 00 40 8F
   425)      1270.677 1  Rx        0152 -  8    EF D9 CE 7C 3D D7 7E 9D
   426)      1270.890 1  Rx        01A0 -  8    C3 01 71 F2 3F 00 00 00
   427)      1271.146 1  Rx        01AC -  8    D3 11 FF A3 C3 FF FD 02
   428)      1275.668 1  Rx        0151 -  8    92 16 FF 7F FC 03 00 7D
   429)      1280.660 1  Rx        018D -  8    00 10 7D B3 00 00 3B 01
   430)      1287.059 1  Rx        03A3 -  8    17 9D 2F 42 42 3F FE CB
   431)      1290.643 1  Rx        00A8 -  8    00 E0 FF D6 99 64 66 0E
   432)      1290.899 1  Rx        01A0 -  8    B2 02 71 F2 3F 00 00 00
   433)      1291.155 1  Rx        01AC -  8    29 12 FF A3 C3 FF FD 02
   434)      1295.678 1  Rx        00EE -  8    00 00 00 00 00 00 40 8F
   435)      1300.669 1  Rx        0152 -  8    A7 DA CE 7C 3D D4 7E 9D
   436)      1301.096 1  Rx    17FC0085 -  8    03 22 F1 87 FF FF FF FF
   437)      1305.490 1  Rx        03C0 -  4    9F 0D 23 00
   438)      1309.501 1  Rx    17FE0085 -  8    10 0E 62 F1 87 34 4E 30
   439)      1310.226 1  Rx    17FC0085 -  8    30 00 00 FF FF FF FF FF
   440)      1310.567 1  Rx    17FE0085 -  8    21 39 30 33 30 32 38 52
   441)      1310.781 1  Rx        00FD -  8    05 E4 3F 00 00 00 00 00
   442)      1311.037 1  Rx        01A0 -  8    C2 03 71 F2 3F 00 00 00
   443)      1311.250 1  Rx        01AC -  8    E3 13 FF A3 C3 FF FD 02
   444)      1311.549 1  Rx    17FE0085 -  8    22 20 AA AA AA AA AA AA
   445)      1315.644 1  Rx        0504 -  8    FF 06 00 00 26 11 14 11
   446)      1320.679 1  Rx        0040 -  8    61 09 00 01 81 00 00 B6
   447)      1325.670 1  Rx        0151 -  8    3A 18 FF 7F FC 03 00 7D
   448)      1330.662 1  Rx        0040 -  8    F8 08 00 01 81 00 00 B4
   449)      1330.918 1  Rx        01A0 -  8    CE 04 71 F2 3F 00 00 00
   450)      1331.131 1  Rx        01AC -  8    A6 14 FF A3 C3 FF FD 02
   451)      1331.387 1  Rx        02C0 -  8    B9 01 39 43 80 1C 0C 70
   452)      1335.654 1  Rx        00A8 -  8    00 E0 FF D6 99 64 78 0E
   453)      1340.645 1  Rx        0151 -  8    17 15 FF FF FC 03 00 7D
   454)      1345.680 1  Rx        01A0 -  8    FF 9F 0F C3 3F 00 00 00
   455)      1350.672 1  Rx        01AC -  8    E0 1F F0 03 42 E2 D1 02
   456)      1350.885 1  Rx        01A0 -  8    FB 05 71 F2 3F 00 00 00
   457)      1351.141 1  Rx        01AC -  8    07 15 FF A3 C3 FF FD 02
   458)      1355.663 1  Rx        018D -  8    00 00 7D B3 00 00 3B 01
   459)      1360.655 1  Rx        00A8 -  8    00 E0 FF D6 99 64 6E 0E
   460)      1365.647 1  Rx        00EE -  8    00 00 00 00 00 00 40 8F
   461)      1370.638 1  Rx        01A0 -  8    D9 06 71 F2 3F 00 00 00
   462)      1370.894 1  Rx        0152 -  8    EF D9 CE 7C 3D D7 7E 9D
   463)      1371.108 1  Rx        01AC -  8    D0 16 FF A3 C3 FF FD 02
   464)      1375.630 1  Rx        0151 -  8    92 16 FF 7F FC 03 00 7D
   465)      1380.664 1  Rx        018D -  8    00 10 7D B3 00 00 3B 01
   466)      1381.006 1  Rx    1B000085 -  8    85 40 04 03 00 00 00 00
   467)      1385.656 1  Rx        03A3 -  8    17 9D 2F 42 42 3F FE CB
   468)      1390.648 1  Rx        00A8 -  8    00 E0 FF D6 99 64 66 0E
   469)      1390.904 1  Rx        01A0 -  8    31 07 71 F2 3F 00 00 00
   470)      1391.117 1  Rx        01AC -  8    4F 17 FF A3 C3 FF FD 02
   471)      1395.639 1  Rx        00EE -  8    00 00 00 00 00 00 40 8F
   472)      1400.631 1  Rx        0152 -  8    A7 DA CE 7C 3D D4 7E 9D
   473)      1405.495 1  Rx        03C0 -  4    9F 0D 23 00
   474)      1410.657 1  Rx        00FD -  8    05 E4 3F 00 00 00 00 00
   475)      1411.084 1  Rx        01A0 -  8    A0 08 71 F2 3F 00 00 00
   476)      1411.297 1  Rx        01AC -  8    A0 18 FF A3 C3 FF FD 02
   477)      1411.553 1  Rx        02C0 -  8    46 02 39 43 80 1C 0C 70
   478)      1415.649 1  Rx        0504 -  8    FF 06 00 00 26 11 14 11
   479)      1420.640 1  Rx        0040 -  8    61 09 00 01 81 00 00 B6
   480)      1425.632 1  Rx        0151 -  8    3A 18 FF 7F FC 03 00 7D
   481)      1430.667 1  Rx        01A0 -  8    36 09 71 F2 3F 00 00 00
   482)      1430.880 1  Rx        0040 -  8    F8 08 00 01 81 00 00 B4
   483)      1431.136 1  Rx        01AC -  8    61 19 FF A3 C3 FF FD 02
   484)      1435.658 1  Rx        00A8 -  8    00 E0 FF D6 99 64 78 0E
   485)      1440.650 1  Rx        0151 -  8    17 15 FF FF FC 03 00 7D
   486)      1445.642 1  Rx        01A0 -  8    FF 9F 0F C3 3F 00 00 00
   487)      1450.633 1  Rx        01AC -  8    E0 1F F0 03 42 E2 D1 02
   488)      1450.889 1  Rx        01A0 -  8    14 0A 71 F2 3F 00 00 00
   489)      1451.103 1  Rx        01AC -  8    4D 1A FF A3 C3 FF FD 02
   490)      1455.668 1  Rx        018D -  8    00 00 7D B3 00 00 3B 01
   491)      1460.659 1  Rx        00A8 -  8    00 E0 FF D6 99 64 6E 0E
   492)      1465.651 1  Rx        00EE -  8    00 00 00 00 00 00 40 8F
   493)      1470.643 1  Rx        0152 -  8    EF D9 CE 7C 3D D7 7E 9D
   494)      1470.899 1  Rx        01A0 -  8    71 0B 71 F2 3F 00 00 00
   495)      1471.112 1  Rx        01AC -  8    E5 1B FF A3 C3 FF FD 02
   496)      1475.634 1  Rx        0151 -  8    92 16 FF 7F FC 03 00 7D
   497)      1480.626 1  Rx        018D -  8    00 10 7D B3 00 00 3B 01
   498)      1485.618 1  Rx        03A3 -  8    17 9D 2F 42 42 3F FE CB
   499)      1490.652 1  Rx        00A8 -  8    00 E0 FF D6 99 64 66 0E
   500)      1490.865 1  Rx        01A0 -  8    AB 0C 71 F2 3F 00 00 00
   501)      1491.121 1  Rx        01AC -  8    A3 1C FF A3 C3 FF FD 02
   502)      1491.335 1  Rx        02C0 -  8    FE 03 39 43 80 1C 0C 70
   503)      1495.644 1  Rx        00EE -  8    00 00 00 00 00 00 40 8F
   504)      1500.635 1  Rx        0152 -  8    A7 DA CE 7C 3D D4 7E 9D
   505)      1505.457 1  Rx        03C0 -  4    9F 0D 23 00
   506)      1510.662 1  Rx        00FD -  8    05 E4 3F 00 00 00 00 00
   507)      1510.875 1  Rx        01A0 -  8    E9 0D 71 F2 3F 00 00 00
   508)      1511.131 1  Rx        01AC -  8    9B 1D FF A3 C3 FF FD 02
   509)      1515.653 1  Rx        0504 -  8    FF 06 00 00 26 11 14 11
   510)      1520.645 1  Rx        0040 -  8    61 09 00 01 81 00 00 B6
   511)      1525.637 1  Rx        0151 -  8    3A 18 FF 7F FC 03 00 7D
   512)      1530.628 1  Rx        01A0 -  8    90 0E 71 F2 3F 00 00 00
   513)      1530.842 1  Rx        0040 -  8    F8 08 00 01 81 00 00 B4
   514)      1531.098 1  Rx        01AC -  8    FC 1E FF A3 C3 FF FD 02
   515)      1535.620 1  Rx        00A8 -  8    00 E0 FF D6 99 64 78 0E
   516)      1540.654 1  Rx        0151 -  8    17 15 FF FF FC 03 00 7D
   517)      1545.646 1  Rx        01A0 -  8    FF 9F 0F C3 3F 00 00 00
   518)      1550.638 1  Rx        01AC -  8    E0 1F F0 03 42 E2 D1 02
   519)      1550.894 1  Rx        01A0 -  8    83 0F 71 F2 3F 00 00 00
   520)      1551.107 1  Rx        01AC -  8    BE 1F FF A3 C3 FF FD 02
   521)      1555.629 1  Rx        018D -  8    00 00 7D B3 00 00 3B 01
   522)      1560.621 1  Rx        00A8 -  8    00 E0 FF D6 99 64 6E 0E
   523)      1565.655 1  Rx        00EE -  8    00 00 00 00 00 00 40 8F
   524)      1568.215 1  Rx    17FC0085 -  8    03 22 F1 89 FF FF FF FF
   525)      1569.623 1  Rx    17FE0085 -  8    07 62 F1 89 30 35 32 37
   526)      1570.647 1  Rx        0152 -  8    EF D9 CE 7C 3D D7 7E 9D
   527)      1571.287 1  Rx        01A0 -  8    74 00 71 F2 3F 00 00 00
   528)      1571.500 1  Rx        01AC -  8    1D 10 FF A3 C3 FF FD 02
   529)      1571.756 1  Rx        02C0 -  8    67 04 39 43 80 1C 0C 70
   530)      1575.639 1  Rx        0151 -  8    92 16 FF 7F FC 03 00 7D
   531)      1580.630 1  Rx        018D -  8    00 10 7D B3 00 00 3B 01
   532)      1580.929 1  Rx    1B000085 -  8    85 40 04 03 00 00 00 00
   533)      1585.622 1  Rx        03A3 -  8    17 9D 2F 42 42 3F FE CB
   534)      1590.614 1  Rx        00A8 -  8    00 E0 FF D6 99 64 66 0E
   535)      1590.870 1  Rx        01A0 -  8    C3 01 71 F2 3F 00 00 00
   536)      1591.126 1  Rx        01AC -  8    D3 11 FF A3 C3 FF FD 02
   537)      1591.382 1  Rx    1A555510 -  8    83 30 30 30 30 4F 00 00
   538)      1597.056 1  Rx        00EE -  8    00 00 00 00 00 00 40 8F
   539)      1600.640 1  Rx        0152 -  8    A7 DA CE 7C 3D D4 7E 9D
   540)      1605.461 1  Rx        03C0 -  4    9F 0D 23 00
   541)      1610.623 1  Rx        01A0 -  8    B2 02 71 F2 3F 00 00 00
   542)      1610.879 1  Rx        00FD -  8    05 E4 3F 00 00 00 00 00
   543)      1611.093 1  Rx        01AC -  8    29 12 FF A3 C3 FF FD 02
   544)      1615.615 1  Rx        0504 -  8    FF 06 00 00 26 11 14 11
   545)      1620.649 1  Rx        0040 -  8    61 09 00 01 81 00 00 B6
   546)      1625.641 1  Rx        0151 -  8    3A 18 FF 7F FC 03 00 7D
   547)      1630.633 1  Rx        0040 -  8    F8 08 00 01 81 00 00 B4
   548)      1630.889 1  Rx        01A0 -  8    C2 03 71 F2 3F 00 00 00
   549)      1631.102 1  Rx        01AC -  8    E3 13 FF A3 C3 FF FD 02
   550)      1635.624 1  Rx        00A8 -  8    00 E0 FF D6 99 64 78 0E
   551)      1640.616 1  Rx        0151 -  8    17 15 FF FF FC 03 00 7D
   552)      1645.650 1  Rx        01A0 -  8    FF 9F 0F C3 3F 00 00 00
   553)      1650.557 1  Rx        01A0 -  8    CE 04 71 F2 3F 00 00 00
   554)      1651.325 1  Rx        01AC -  8    E0 1F F0 03 42 E2 D1 02
   555)      1651.581 1  Rx        01AC -  8    A6 14 FF A3 C3 FF FD 02
   556)      1651.794 1  Rx        02C0 -  8    73 05 39 43 80 1C 0C 70
   557)      1655.634 1  Rx        018D -  8    00 00 7D B3 00 00 3B 01
   558)      1660.625 1  Rx        00A8 -  8    00 E0 FF D6 99 64 6E 0E
   559)      1665.617 1  Rx        00EE -  8    00 00 00 00 00 00 40 8F
   560)      1670.609 1  Rx        01A0 -  8    FB 05 71 F2 3F 00 00 00
   561)      1670.822 1  Rx        0152 -  8    EF D9 CE 7C 3D D7 7E 9D
   562)      1671.078 1  Rx        01AC -  8    07 15 FF A3 C3 FF FD 02
   563)      1675.643 1  Rx        0151 -  8    92 16 FF 7F FC 03 00 7D
   564)      1680.635 1  Rx        018D -  8    00 10 7D B3 00 00 3B 01
   565)      1685.627 1  Rx        03A3 -  8    17 9D 2F 42 42 3F FE CB
   566)      1690.618 1  Rx        00A8 -  8    00 E0 FF D6 99 64 66 0E
   567)      1690.874 1  Rx        01A0 -  8    D9 06 71 F2 3F 00 00 00
   568)      1691.088 1  Rx        01AC -  8    D0 16 FF A3 C3 FF FD 02
   569)      1691.386 1  Rx    17F00085 -  8    20 85 00 00 00 00 01 80
   570)      1691.685 1  Rx    1A5554A7 -  8    42 00 00 00 00 00 00 80
   571)      1695.653 1  Rx        00EE -  8    00 00 00 00 00 00 40 8F
   572)      1700.602 1  Rx        0152 -  8    A7 DA CE 7C 3D D4 7E 9D
   573)      1705.465 1  Rx        03C0 -  4    9F 0D 23 00
   574)      1710.628 1  Rx        00FD -  8    05 E4 3F 00 00 00 00 00
   575)      1710.884 1  Rx        01A0 -  8    31 07 71 F2 3F 00 00 00
   576)      1711.097 1  Rx        01AC -  8    4F 17 FF A3 C3 FF FD 02
   577)      1715.619 1  Rx        0504 -  8    FF 06 00 00 26 11 14 11
   578)      1720.611 1  Rx        0040 -  8    61 09 00 01 81 00 00 B6
   579)      1725.603 1  Rx        0151 -  8    3A 18 FF 7F FC 03 00 7D
   580)      1730.637 1  Rx        0040 -  8    F8 08 00 01 81 00 00 B4
   581)      1730.893 1  Rx        01A0 -  8    A0 08 71 F2 3F 00 00 00
   582)      1731.106 1  Rx        01AC -  8    A0 18 FF A3 C3 FF FD 02
   583)      1731.362 1  Rx        02C0 -  8    8E 06 39 43 80 1C 0C 70
   584)      1735.629 1  Rx        00A8 -  8    00 E0 FF D6 99 64 78 0E
   585)      1740.620 1  Rx        0151 -  8    17 15 FF FF FC 03 00 7D
   586)      1745.612 1  Rx        01A0 -  8    FF 9F 0F C3 3F 00 00 00
   587)      1750.604 1  Rx        01AC -  8    E0 1F F0 03 42 E2 D1 02
   588)      1751.116 1  Rx        01A0 -  8    36 09 71 F2 3F 00 00 00
   589)      1751.372 1  Rx        01AC -  8    61 19 FF A3 C3 FF FD 02
   590)      1755.638 1  Rx        018D -  8    00 00 7D B3 00 00 3B 01
   591)      1760.630 1  Rx        00A8 -  8    00 E0 FF D6 99 64 6E 0E
   592)      1765.622 1  Rx        00EE -  8    00 00 00 00 00 00 40 8F
   593)      1770.613 1  Rx        0152 -  8    EF D9 CE 7C 3D D7 7E 9D
   594)      1770.869 1  Rx        01A0 -  8    14 0A 71 F2 3F 00 00 00
   595)      1771.083 1  Rx        01AC -  8    4D 1A FF A3 C3 FF FD 02
   596)      1775.605 1  Rx        0151 -  8    92 16 FF 7F FC 03 00 7D
   597)      1780.639 1  Rx        018D -  8    00 10 7D B3 00 00 3B 01
   598)      1780.895 1  Rx    1B000085 -  8    85 40 04 03 00 00 00 00
   599)      1785.631 1  Rx        03A3 -  8    17 9D 2F 42 42 3F FE CB
   600)      1790.623 1  Rx        00A8 -  8    00 E0 FF D6 99 64 66 0E
   601)      1790.836 1  Rx        01A0 -  8    71 0B 71 F2 3F 00 00 00
   602)      1791.092 1  Rx        01AC -  8    E5 1B FF A3 C3 FF FD 02
   603)      1795.614 1  Rx        00EE -  8    00 00 00 00 00 00 40 8F
   604)      1800.606 1  Rx        0152 -  8    A7 DA CE 7C 3D D4 7E 9D
   605)      1805.427 1  Rx        03C0 -  4    9F 0D 23 00
   606)      1810.632 1  Rx        00FD -  8    05 E4 3F 00 00 00 00 00
   607)      1810.845 1  Rx        01A0 -  8    AB 0C 71 F2 3F 00 00 00
   608)      1811.101 1  Rx        01AC -  8    A3 1C FF A3 C3 FF FD 02
   609)      1811.357 1  Rx        02C0 -  8    2E 07 39 43 80 1C 0C 70
   610)      1815.624 1  Rx        0504 -  8    FF 06 00 00 26 11 14 11
   611)      1820.615 1  Rx        0040 -  8    61 09 00 01 81 00 00 B6
   612)      1825.607 1  Rx        0151 -  8    3A 18 FF 7F FC 03 00 7D
   613)      1830.386 1  Rx    17FC0085 -  8    03 22 F1 91 FF FF FF FF
   614)      1830.642 1  Rx        0040 -  8    F8 08 00 01 81 00 00 B4
   615)      1830.855 1  Rx        01A0 -  8    E9 0D 71 F2 3F 00 00 00
   616)      1831.111 1  Rx        01AC -  8    9B 1D FF A3 C3 FF FD 02
   617)      1835.633 1  Rx        00A8 -  8    00 E0 FF D6 99 64 78 0E
   618)      1839.516 1  Rx    17FE0085 -  8    10 0E 62 F1 91 34 4E 30
   619)      1840.284 1  Rx    17FC0085 -  8    30 00 00 FF FF FF FF FF
   620)      1840.582 1  Rx    17FE0085 -  8    21 39 30 33 30 32 38 52
   621)      1840.838 1  Rx        0151 -  8    17 15 FF FF FC 03 00 7D
   622)      1841.094 1  Rx    17FE0085 -  8    22 20 AA AA AA AA AA AA
   623)      1845.617 1  Rx        01A0 -  8    FF 9F 0F C3 3F 00 00 00
   624)      1850.608 1  Rx        01AC -  8    E0 1F F0 03 42 E2 D1 02
   625)      1850.864 1  Rx        01A0 -  8    90 0E 71 F2 3F 00 00 00
   626)      1851.078 1  Rx        01AC -  8    FC 1E FF A3 C3 FF FD 02
   627)      1855.600 1  Rx        018D -  8    00 00 7D B3 00 00 3B 01
   628)      1860.592 1  Rx        00A8 -  8    00 E0 FF D6 99 64 6E 0E
   629)      1865.626 1  Rx        00EE -  8    00 00 00 00 00 00 40 8F
   630)      1870.618 1  Rx        0152 -  8    EF D9 CE 7C 3D D7 7E 9D
   631)      1870.831 1  Rx        01A0 -  8    83 0F 71 F2 3F 00 00 00
   632)      1871.087 1  Rx        01AC -  8    BE 1F FF A3 C3 FF FD 02
   633)      1875.609 1  Rx        0151 -  8    92 16 FF 7F FC 03 00 7D
   634)      1880.601 1  Rx        018D -  8    00 10 7D B3 00 00 3B 01
   635)      1885.593 1  Rx        03A3 -  8    17 9D 2F 42 42 3F FE CB
   636)      1890.627 1  Rx        00A8 -  8    00 E0 FF D6 99 64 66 0E
   637)      1890.840 1  Rx        01A0 -  8    74 00 71 F2 3F 00 00 00
   638)      1891.096 1  Rx        01AC -  8    1D 10 FF A3 C3 FF FD 02
   639)      1891.310 1  Rx        02C0 -  8    7F 08 39 43 80 1C 0C 70
   640)      1895.619 1  Rx        00EE -  8    00 00 00 00 00 00 40 8F
   641)      1902.018 1  Rx        0152 -  8    A7 DA CE 7C 3D D4 7E 9D
   642)      1905.432 1  Rx        03C0 -  4    9F 0D 23 00
   643)      1910.594 1  Rx        01A0 -  8    C3 01 71 F2 3F 00 00 00
   644)      1910.850 1  Rx        00FD -  8    05 E4 3F 00 00 00 00 00
   645)      1911.063 1  Rx        01AC -  8    D3 11 FF A3 C3 FF FD 02
   646)      1915.628 1  Rx        0504 -  8    FF 06 00 00 26 11 14 11
   647)      1920.620 1  Rx        0040 -  8    61 09 00 01 81 00 00 B6
   648)      1925.612 1  Rx        0151 -  8    3A 18 FF 7F FC 03 00 7D
   649)      1930.603 1  Rx        0040 -  8    F8 08 00 01 81 00 00 B4
   650)      1930.859 1  Rx        01A0 -  8    B2 02 71 F2 3F 00 00 00
   651)      1931.073 1  Rx        01AC -  8    29 12 FF A3 C3 FF FD 02
   652)      1935.595 1  Rx        00A8 -  8    00 E0 FF D6 99 64 78 0E
   653)      1940.587 1  Rx        0151 -  8    17 15 FF FF FC 03 00 7D
   654)      1945.621 1  Rx        01A0 -  8    FF 9F 0F C3 3F 00 00 00
   655)      1950.527 1  Rx        01A0 -  8    C2 03 71 F2 3F 00 00 00
   656)      1951.210 1  Rx        01AC -  8    E0 1F F0 03 42 E2 D1 02
   657)      1951.466 1  Rx        01AC -  8    E3 13 FF A3 C3 FF FD 02
   658)      1955.604 1  Rx        018D -  8    00 00 7D B3 00 00 3B 01
   659)      1960.596 1  Rx        00A8 -  8    00 E0 FF D6 99 64 6E 0E
   660)      1965.630 1  Rx        00EE -  8    00 00 00 00 00 00 40 8F
   661)      1970.579 1  Rx        0152 -  8    EF D9 CE 7C 3D D7 7E 9D
   662)      1970.835 1  Rx        01A0 -  8    CE 04 71 F2 3F 00 00 00
   663)      1971.091 1  Rx        01AC -  8    A6 14 FF A3 C3 FF FD 02
   664)      1971.305 1  Rx        02C0 -  8    8A 09 39 43 80 1C 0C 70
   665)      1975.614 1  Rx        0151 -  8    92 16 FF 7F FC 03 00 7D
   666)      1980.605 1  Rx        018D -  8    00 10 7D B3 00 00 3B 01
   667)      1980.904 1  Rx    1B000085 -  8    85 40 04 03 00 00 00 00
   668)      1985.597 1  Rx        03A3 -  8    17 9D 2F 42 42 3F FE CB
   669)      1990.589 1  Rx        00A8 -  8    00 E0 FF D6 99 64 66 0E
   670)      1990.845 1  Rx        01A0 -  8    FB 05 71 F2 3F 00 00 00
   671)      1991.058 1  Rx        01AC -  8    07 15 FF A3 C3 FF FD 02
   672)      1995.623 1  Rx        00EE -  8    00 00 00 00 00 00 40 8F
   673)      2000.615 1  Rx        0152 -  8    A7 DA CE 7C 3D D4 7E 9D
   674)      2005.436 1  Rx        03C0 -  4    9F 0D 23 00
   675)      2010.598 1  Rx        00FD -  8    05 E4 3F 00 00 00 00 00
   676)      2010.854 1  Rx        01A0 -  8    D9 06 71 F2 3F 00 00 00
   677)      2011.068 1  Rx        01AC -  8    D0 16 FF A3 C3 FF FD 02
   678)      2015.590 1  Rx        0504 -  8    FF 06 00 00 26 11 14 11
   679)      2020.582 1  Rx        0040 -  8    61 09 00 01 81 00 00 B6
   680)      2025.616 1  Rx        0151 -  8    3A 18 FF 7F FC 03 00 7D
   681)      2030.565 1  Rx        01A0 -  8    31 07 71 F2 3F 00 00 00
   682)      2030.821 1  Rx        0040 -  8    F8 08 00 01 81 00 00 B4
   683)      2031.077 1  Rx        01AC -  8    4F 17 FF A3 C3 FF FD 02
   684)      2035.599 1  Rx        00A8 -  8    00 E0 FF D6 99 64 78 0E
   685)      2040.591 1  Rx        0151 -  8    17 15 FF FF FC 03 00 7D
   686)      2045.583 1  Rx        01A0 -  8    FF 9F 0F C3 3F 00 00 00
   687)      2050.574 1  Rx        01AC -  8    E0 1F F0 03 42 E2 D1 02
   688)      2050.830 1  Rx        01A0 -  8    A0 08 71 F2 3F 00 00 00
   689)      2051.086 1  Rx        01AC -  8    A0 18 FF A3 C3 FF FD 02
   690)      2051.300 1  Rx        02C0 -  8    3E 0A 39 43 80 1C 0C 70
   691)      2055.609 1  Rx        018D -  8    00 00 7D B3 00 00 3B 01
   692)      2060.509 1  Rx        00A8 -  8    00 E0 FF D6 99 64 6E 0E
   693)      2065.501 1  Rx        00EE -  8    00 00 00 00 00 00 40 8F
   694)      2070.493 1  Rx        0152 -  8    EF D9 CE 7C 3D D7 7E 9D
   695)      2070.749 1  Rx        01A0 -  8    36 09 71 F2 3F 00 00 00
   696)      2070.962 1  Rx        01AC -  8    61 19 FF A3 C3 FF FD 02
   697)      2075.485 1  Rx        0151 -  8    92 16 FF 7F FC 03 00 7D
   698)      2080.519 1  Rx        018D -  8    00 10 7D B3 00 00 3B 01
   699)      2085.511 1  Rx        03A3 -  8    17 9D 2F 42 42 3F FE CB
   700)      2090.417 1  Rx        01A0 -  8    14 0A 71 F2 3F 00 00 00
   701)      2090.673 1  Rx        00A8 -  8    00 E0 FF D6 99 64 66 0E
   702)      2090.886 1  Rx        01AC -  8    4D 1A FF A3 C3 FF FD 02
   703)      2095.494 1  Rx        00EE -  8    00 00 00 00 00 00 40 8F
   704)      2098.011 1  Rx    17FC0085 -  8    03 22 F1 A3 FF FF FF FF
   705)      2099.632 1  Rx    17FE0085 -  8    06 62 F1 A3 48 31 39 AA
   706)      2100.486 1  Rx        0152 -  8    A7 DA CE 7C 3D D4 7E 9D
   707)      2105.349 1  Rx        03C0 -  4    9F 0D 23 00
   708)      2110.512 1  Rx        00FD -  8    05 E4 3F 00 00 00 00 00
   709)      2110.725 1  Rx        01A0 -  8    71 0B 71 F2 3F 00 00 00
   710)      2110.981 1  Rx        01AC -  8    E5 1B FF A3 C3 FF FD 02
   711)      2115.503 1  Rx        0504 -  8    FF 06 00 00 26 11 14 11
   712)      2120.495 1  Rx        0040 -  8    61 09 00 01 81 00 00 B6
   713)      2125.487 1  Rx        0151 -  8    3A 18 FF 7F FC 03 00 7D
   714)      2130.521 1  Rx        0040 -  8    F8 08 00 01 81 00 00 B4
   715)      2130.734 1  Rx        01A0 -  8    AB 0C 71 F2 3F 00 00 00
   716)      2130.990 1  Rx        01AC -  8    A3 1C FF A3 C3 FF FD 02
   717)      2131.204 1  Rx        02C0 -  8    7B 0B 39 43 80 1C 0C 70
   718)      2135.513 1  Rx        00A8 -  8    00 E0 FF D6 99 64 78 0E
   719)      2140.504 1  Rx        0151 -  8    17 15 FF FF FC 03 00 7D
   720)      2145.496 1  Rx        01A0 -  8    FF 9F 0F C3 3F 00 00 00
   721)      2150.488 1  Rx        01AC -  8    E0 1F F0 03 42 E2 D1 02
   722)      2150.744 1  Rx        01A0 -  8    E9 0D 71 F2 3F 00 00 00
   723)      2150.957 1  Rx        01AC -  8    9B 1D FF A3 C3 FF FD 02
   724)      2155.480 1  Rx        018D -  8    00 00 7D B3 00 00 3B 01
   725)      2160.514 1  Rx        00A8 -  8    00 E0 FF D6 99 64 6E 0E
   726)      2165.506 1  Rx        00EE -  8    00 00 00 00 00 00 40 8F
   727)      2170.327 1  Rx        01A0 -  8    90 0E 71 F2 3F 00 00 00
   728)      2170.540 1  Rx        0152 -  8    EF D9 CE 7C 3D D7 7E 9D
   729)      2170.796 1  Rx        01AC -  8    FC 1E FF A3 C3 FF FD 02
   730)      2175.489 1  Rx        0151 -  8    92 16 FF 7F FC 03 00 7D
   731)      2180.481 1  Rx        018D -  8    00 10 7D B3 00 00 3B 01
   732)      2180.950 1  Rx    1B000085 -  8    85 40 04 03 00 00 00 00
   733)      2185.472 1  Rx        03A3 -  8    17 9D 2F 42 42 3F FE CB
   734)      2190.507 1  Rx        00A8 -  8    00 E0 FF D6 99 64 66 0E
   735)      2191.019 1  Rx        01A0 -  8    83 0F 71 F2 3F 00 00 00
   736)      2191.232 1  Rx        01AC -  8    BE 1F FF A3 C3 FF FD 02
   737)      2191.531 1  Rx    17F00085 -  8    20 85 00 00 00 00 01 80
   738)      2191.829 1  Rx    1A5554A7 -  8    42 00 00 00 00 00 00 80
   739)      2195.498 1  Rx        00EE -  8    00 00 00 00 00 00 40 8F
   740)      2200.490 1  Rx        0152 -  8    A7 DA CE 7C 3D D4 7E 9D
   741)      2205.311 1  Rx        03C0 -  4    9F 0D 23 00
   742)      2210.644 1  Rx        01A0 -  8    74 00 71 F2 3F 00 00 00
   743)      2210.857 1  Rx        01AC -  8    1D 10 FF A3 C3 FF FD 02
   744)      2211.071 1  Rx        02C0 -  8    23 0C 39 43 80 1C 0C 70
   745)      2211.881 1  Rx        00FD -  8    05 E4 3F 00 00 00 00 00
   746)      2215.508 1  Rx        0504 -  8    FF 06 00 00 26 11 14 11
   747)      2220.499 1  Rx        0040 -  8    61 09 00 01 81 00 00 B6
   748)      2225.491 1  Rx        0151 -  8    3A 18 FF 7F FC 03 00 7D
   749)      2230.440 1  Rx        01A0 -  8    C3 01 71 F2 3F 00 00 00
   750)      2230.696 1  Rx        0040 -  8    F8 08 00 01 81 00 00 B4
   751)      2230.909 1  Rx        01AC -  8    D3 11 FF A3 C3 FF FD 02
   752)      2235.475 1  Rx        00A8 -  8    00 E0 FF D6 99 64 78 0E
   753)      2240.509 1  Rx        0151 -  8    17 15 FF FF FC 03 00 7D
   754)      2245.501 1  Rx        01A0 -  8    FF 9F 0F C3 3F 00 00 00
   755)      2250.492 1  Rx        01AC -  8    E0 1F F0 03 42 E2 D1 02
   756)      2250.706 1  Rx        01A0 -  8    B2 02 71 F2 3F 00 00 00
   757)      2250.962 1  Rx        01AC -  8    29 12 FF A3 C3 FF FD 02
   758)      2255.484 1  Rx        018D -  8    00 00 7D B3 00 00 3B 01
   759)      2260.476 1  Rx        00A8 -  8    00 E0 FF D6 99 64 6E 0E
   760)      2265.510 1  Rx        00EE -  8    00 00 00 00 00 00 40 8F
   761)      2270.502 1  Rx        0152 -  8    EF D9 CE 7C 3D D7 7E 9D
   762)      2270.971 1  Rx        01A0 -  8    C2 03 71 F2 3F 00 00 00
   763)      2271.184 1  Rx        01AC -  8    E3 13 FF A3 C3 FF FD 02
   764)      2275.493 1  Rx        0151 -  8    92 16 FF 7F FC 03 00 7D
   765)      2280.485 1  Rx        018D -  8    00 10 7D B3 00 00 3B 01
   766)      2285.477 1  Rx        03A3 -  8    17 9D 2F 42 42 3F FE CB
   767)      2290.468 1  Rx        00A8 -  8    00 E0 FF D6 99 64 66 0E
   768)      2290.724 1  Rx        01A0 -  8    CE 04 71 F2 3F 00 00 00
   769)      2290.938 1  Rx        01AC -  8    A6 14 FF A3 C3 FF FD 02
   770)      2291.194 1  Rx        02C0 -  8    4B 0D 39 43 80 1C 0C 70
   771)      2295.503 1  Rx        00EE -  8    00 00 00 00 00 00 40 8F
   772)      2300.494 1  Rx        0152 -  8    A7 DA CE 7C 3D D4 7E 9D
   773)      2305.316 1  Rx        03C0 -  4    9F 0D 23 00
   774)      2310.478 1  Rx        00FD -  8    05 E4 3F 00 00 00 00 00
   775)      2310.734 1  Rx        01A0 -  8    FB 05 71 F2 3F 00 00 00
   776)      2310.947 1  Rx        01AC -  8    07 15 FF A3 C3 FF FD 02
   777)      2315.470 1  Rx        0504 -  8    FF 06 00 00 26 11 14 11
   778)      2320.504 1  Rx        0040 -  8    61 09 00 01 81 00 00 B6
   779)      2325.496 1  Rx        0151 -  8    3A 18 FF 7F FC 03 00 7D
   780)      2330.487 1  Rx        0040 -  8    F8 08 00 01 81 00 00 B4
   781)      2330.743 1  Rx        01A0 -  8    D9 06 71 F2 3F 00 00 00
   782)      2330.957 1  Rx        01AC -  8    D0 16 FF A3 C3 FF FD 02
   783)      2335.479 1  Rx        00A8 -  8    00 E0 FF D6 99 64 78 0E
   784)      2340.471 1  Rx        0151 -  8    17 15 FF FF FC 03 00 7D
   785)      2345.505 1  Rx        01A0 -  8    FF 9F 0F C3 3F 00 00 00
   786)      2350.497 1  Rx        01AC -  8    E0 1F F0 03 42 E2 D1 02
   787)      2350.710 1  Rx        01A0 -  8    31 07 71 F2 3F 00 00 00
   788)      2350.966 1  Rx        01AC -  8    4F 17 FF A3 C3 FF FD 02
   789)      2355.488 1  Rx        018D -  8    00 00 7D B3 00 00 3B 01
   790)      2356.342 1  Rx    17FC0085 -  8    03 22 F1 A5 FF FF FF FF
   791)      2359.456 1  Rx    17FE0085 -  8    10 09 62 F1 A5 00 00 08
   792)      2360.181 1  Rx    17FC0085 -  8    30 00 00 FF FF FF FF FF
   793)      2360.480 1  Rx    17FE0085 -  8    21 44 7A B6 AA AA AA AA
   794)      2360.693 1  Rx        00A8 -  8    00 E0 FF D6 99 64 6E 0E
   795)      2365.472 1  Rx        00EE -  8    00 00 00 00 00 00 40 8F
   796)      2370.463 1  Rx        0152 -  8    EF D9 CE 7C 3D D7 7E 9D
   797)      2370.719 1  Rx        01A0 -  8    A0 08 71 F2 3F 00 00 00
   798)      2370.933 1  Rx        01AC -  8    A0 18 FF A3 C3 FF FD 02
   799)      2371.189 1  Rx        02C0 -  8    D5 0E 39 43 80 1C 0C 70
   800)      2375.455 1  Rx        0151 -  8    92 16 FF 7F FC 03 00 7D
   801)      2380.489 1  Rx    1B000085 -  8    85 40 04 03 00 00 00 00
   802)      2380.745 1  Rx        018D -  8    00 10 7D B3 00 00 3B 01
   803)      2385.481 1  Rx        03A3 -  8    17 9D 2F 42 42 3F FE CB
   804)      2390.473 1  Rx        00A8 -  8    00 E0 FF D6 99 64 66 0E
   805)      2390.729 1  Rx        01A0 -  8    36 09 71 F2 3F 00 00 00
   806)      2390.942 1  Rx        01AC -  8    61 19 FF A3 C3 FF FD 02
   807)      2395.465 1  Rx        00EE -  8    00 00 00 00 00 00 40 8F
   808)      2400.456 1  Rx        0152 -  8    A7 DA CE 7C 3D D4 7E 9D
   809)      2405.320 1  Rx        03C0 -  4    9F 0D 23 00
   810)      2410.482 1  Rx        00FD -  8    05 E4 3F 00 00 00 00 00
   811)      2410.738 1  Rx        01A0 -  8    14 0A 71 F2 3F 00 00 00
   812)      2410.952 1  Rx        01AC -  8    4D 1A FF A3 C3 FF FD 02
   813)      2415.474 1  Rx        0504 -  8    FF 06 00 00 26 11 14 11
   814)      2420.466 1  Rx        0040 -  8    61 09 00 01 81 00 00 B6
   815)      2425.457 1  Rx        0151 -  8    3A 18 FF 7F FC 03 00 7D
   816)      2430.492 1  Rx        0040 -  8    F8 08 00 01 81 00 00 B4
   817)      2430.705 1  Rx        01A0 -  8    71 0B 71 F2 3F 00 00 00
   818)      2430.961 1  Rx        01AC -  8    E5 1B FF A3 C3 FF FD 02
   819)      2435.483 1  Rx        00A8 -  8    00 E0 FF D6 99 64 78 0E
   820)      2440.475 1  Rx        0151 -  8    17 15 FF FF FC 03 00 7D
   821)      2445.467 1  Rx        01A0 -  8    FF 9F 0F C3 3F 00 00 00
   822)      2450.458 1  Rx        01AC -  8    E0 1F F0 03 42 E2 D1 02
   823)      2450.714 1  Rx        01A0 -  8    AB 0C 71 F2 3F 00 00 00
   824)      2450.928 1  Rx        01AC -  8    A3 1C FF A3 C3 FF FD 02
   825)      2451.184 1  Rx        02C0 -  8    F9 0F 39 43 80 1C 0C 70
   826)      2455.493 1  Rx        018D -  8    00 00 7D B3 00 00 3B 01
   827)      2460.484 1  Rx        00A8 -  8    00 E0 FF D6 99 64 6E 0E
   828)      2465.476 1  Rx        00EE -  8    00 00 00 00 00 00 40 8F
   829)      2470.468 1  Rx        0152 -  8    EF D9 CE 7C 3D D7 7E 9D
   830)      2470.681 1  Rx        01A0 -  8    E9 0D 71 F2 3F 00 00 00
   831)      2470.937 1  Rx        01AC -  8    9B 1D FF A3 C3 FF FD 02
   832)      2475.460 1  Rx        0151 -  8    92 16 FF 7F FC 03 00 7D
   833)      2480.451 1  Rx        018D -  8    00 10 7D B3 00 00 3B 01
   834)      2485.443 1  Rx        03A3 -  8    17 9D 2F 42 42 3F FE CB
   835)      2490.477 1  Rx        00A8 -  8    00 E0 FF D6 99 64 66 0E
   836)      2490.691 1  Rx        01A0 -  8    90 0E 71 F2 3F 00 00 00
   837)      2490.947 1  Rx        01AC -  8    FC 1E FF A3 C3 FF FD 02
   838)      2495.469 1  Rx        00EE -  8    00 00 00 00 00 00 40 8F
   839)      2500.461 1  Rx        0152 -  8    A7 DA CE 7C 3D D4 7E 9D
   840)      2505.282 1  Rx        03C0 -  4    9F 0D 23 00
   841)      2510.487 1  Rx        00FD -  8    05 E4 3F 00 00 00 00 00
   842)      2510.700 1  Rx        01A0 -  8    83 0F 71 F2 3F 00 00 00
   843)      2510.956 1  Rx        01AC -  8    BE 1F FF A3 C3 FF FD 02
   844)      2515.478 1  Rx        0504 -  8    FF 06 00 00 26 11 14 11
   845)      2521.878 1  Rx        0040 -  8    61 09 00 01 81 00 00 B6
   846)      2525.462 1  Rx        0151 -  8    3A 18 FF 7F FC 03 00 7D
   847)      2530.453 1  Rx        01A0 -  8    74 00 71 F2 3F 00 00 00
   848)      2530.709 1  Rx        0040 -  8    F8 08 00 01 81 00 00 B4
   849)      2530.923 1  Rx        01AC -  8    1D 10 FF A3 C3 FF FD 02
   850)      2531.179 1  Rx        02C0 -  8    61 00 39 43 80 1C 0C 70
   851)      2535.445 1  Rx        00A8 -  8    00 E0 FF D6 99 64 78 0E
   852)      2540.479 1  Rx        0151 -  8    17 15 FF FF FC 03 00 7D
   853)      2545.471 1  Rx        01A0 -  8    FF 9F 0F C3 3F 00 00 00
   854)      2550.463 1  Rx        01AC -  8    E0 1F F0 03 42 E2 D1 02
   855)      2550.719 1  Rx        01A0 -  8    C3 01 71 F2 3F 00 00 00
   856)      2550.932 1  Rx        01AC -  8    D3 11 FF A3 C3 FF FD 02
   857)      2551.231 1  Rx    1A555510 -  8    80 34 4E 30 30 BF 00 00
   858)      2555.455 1  Rx        018D -  8    00 00 7D B3 00 00 3B 01
   859)      2560.446 1  Rx        00A8 -  8    00 E0 FF D6 99 64 6E 0E
   860)      2565.481 1  Rx        00EE -  8    00 00 00 00 00 00 40 8F
   861)      2570.387 1  Rx        01A0 -  8    B2 02 71 F2 3F 00 00 00
   862)      2570.643 1  Rx        0152 -  8    EF D9 CE 7C 3D D7 7E 9D
   863)      2570.856 1  Rx        01AC -  8    29 12 FF A3 C3 FF FD 02
   864)      2575.464 1  Rx        0151 -  8    92 16 FF 7F FC 03 00 7D
   865)      2580.456 1  Rx        018D -  8    00 10 7D B3 00 00 3B 01
   866)      2580.754 1  Rx    1B000085 -  8    85 40 04 03 00 00 00 00
   867)      2585.447 1  Rx        03A3 -  8    17 9D 2F 42 42 3F FE CB
   868)      2590.439 1  Rx        00A8 -  8    00 E0 FF D6 99 64 66 0E
   869)      2590.695 1  Rx        01A0 -  8    C2 03 71 F2 3F 00 00 00
   870)      2590.951 1  Rx        01AC -  8    E3 13 FF A3 C3 FF FD 02
   871)      2595.473 1  Rx        00EE -  8    00 00 00 00 00 00 40 8F
   872)      2600.465 1  Rx        0152 -  8    A7 DA CE 7C 3D D4 7E 9D
   873)      2605.286 1  Rx        03C0 -  4    9F 0D 23 00
   874)      2610.448 1  Rx        00FD -  8    05 E4 3F 00 00 00 00 00
   875)      2610.704 1  Rx        01A0 -  8    CE 04 71 F2 3F 00 00 00
   876)      2610.918 1  Rx        01AC -  8    A6 14 FF A3 C3 FF FD 02
   877)      2611.174 1  Rx        02C0 -  8    B9 01 39 43 80 1C 0C 70
   878)      2615.440 1  Rx        0504 -  8    FF 06 00 00 26 11 14 11
   879)      2620.474 1  Rx        0040 -  8    61 09 00 01 81 00 00 B6
   880)      2620.730 1  Rx    17FC0085 -  8    03 22 F1 97 FF FF FF FF
   881)      2625.466 1  Rx        0151 -  8    3A 18 FF 7F FC 03 00 7D
   882)      2629.434 1  Rx    17FE0085 -  8    10 10 62 F1 97 42 53 47
   883)      2630.202 1  Rx    17FC0085 -  8    30 00 00 FF FF FF FF FF
   884)      2630.458 1  Rx        0040 -  8    F8 08 00 01 81 00 00 B4
   885)      2630.714 1  Rx    17FE0085 -  8    21 2D 48 50 31 2D 36 35
   886)      2631.012 1  Rx    17FE0085 -  8    22 20 20 20 AA AA AA AA
   887)      2631.268 1  Rx        01A0 -  8    FB 05 71 F2 3F 00 00 00
   888)      2631.482 1  Rx        01AC -  8    07 15 FF A3 C3 FF FD 02
   889)      2635.450 1  Rx        00A8 -  8    00 E0 FF D6 99 64 78 0E
   890)      2640.441 1  Rx        0151 -  8    17 15 FF FF FC 03 00 7D
   891)      2645.476 1  Rx        01A0 -  8    FF 9F 0F C3 3F 00 00 00
   892)      2650.467 1  Rx        01AC -  8    E0 1F F0 03 42 E2 D1 02
   893)      2650.681 1  Rx        01A0 -  8    D9 06 71 F2 3F 00 00 00
   894)      2650.937 1  Rx        01AC -  8    D0 16 FF A3 C3 FF FD 02
   895)      2655.459 1  Rx        018D -  8    00 00 7D B3 00 00 3B 01
   896)      2660.451 1  Rx        00A8 -  8    00 E0 FF D6 99 64 6E 0E
   897)      2665.442 1  Rx        00EE -  8    00 00 00 00 00 00 40 8F
   898)      2670.434 1  Rx        0152 -  8    EF D9 CE 7C 3D D7 7E 9D
   899)      2670.690 1  Rx        01A0 -  8    31 07 71 F2 3F 00 00 00
   900)      2670.903 1  Rx        01AC -  8    4F 17 FF A3 C3 FF FD 02
   901)      2675.426 1  Rx        0151 -  8    92 16 FF 7F FC 03 00 7D
   902)      2680.460 1  Rx        018D -  8    00 10 7D B3 00 00 3B 01
   903)      2685.452 1  Rx        03A3 -  8    17 9D 2F 42 42 3F FE CB
   904)      2690.401 1  Rx        01A0 -  8    A0 08 71 F2 3F 00 00 00
   905)      2690.614 1  Rx        00A8 -  8    00 E0 FF D6 99 64 66 0E
   906)      2690.870 1  Rx        01AC -  8    A0 18 FF A3 C3 FF FD 02
   907)      2691.083 1  Rx        02C0 -  8    46 02 39 43 80 1C 0C 70
   908)      2691.382 1  Rx    17F00085 -  8    20 85 00 00 00 00 01 80
   909)      2691.681 1  Rx    1A5554A7 -  8    42 00 00 00 00 00 00 80
   910)      2695.478 1  Rx        00EE -  8    00 00 00 00 00 00 40 8F
   911)      2700.427 1  Rx        0152 -  8    A7 DA CE 7C 3D D4 7E 9D
   912)      2705.291 1  Rx        03C0 -  4    9F 0D 23 00
   913)      2710.410 1  Rx        01A0 -  8    36 09 71 F2 3F 00 00 00
   914)      2710.666 1  Rx        00FD -  8    05 E4 3F 00 00 00 00 00
   915)      2710.879 1  Rx        01AC -  8    61 19 FF A3 C3 FF FD 02
   916)      2715.445 1  Rx        0504 -  8    FF 06 00 00 26 11 14 11
   917)      2720.436 1  Rx        0040 -  8    61 09 00 01 81 00 00 B6
   918)      2725.428 1  Rx        0151 -  8    3A 18 FF 7F FC 03 00 7D
   919)      2730.462 1  Rx        0040 -  8    F8 08 00 01 81 00 00 B4
   920)      2730.676 1  Rx        01A0 -  8    14 0A 71 F2 3F 00 00 00
   921)      2730.932 1  Rx        01AC -  8    4D 1A FF A3 C3 FF FD 02
   922)      2735.454 1  Rx        00A8 -  8    00 E0 FF D6 99 64 78 0E
   923)      2740.446 1  Rx        0151 -  8    17 15 FF FF FC 03 00 7D
   924)      2745.437 1  Rx        01A0 -  8    FF 9F 0F C3 3F 00 00 00
   925)      2750.429 1  Rx        01A0 -  8    71 0B 71 F2 3F 00 00 00
   926)      2751.837 1  Rx        01AC -  8    E0 1F F0 03 42 E2 D1 02
   927)      2752.093 1  Rx        01AC -  8    E5 1B FF A3 C3 FF FD 02
   928)      2755.463 1  Rx        018D -  8    00 00 7D B3 00 00 3B 01
   929)      2760.455 1  Rx        00A8 -  8    00 E0 FF D6 99 64 6E 0E
   930)      2765.447 1  Rx        00EE -  8    00 00 00 00 00 00 40 8F
   931)      2770.438 1  Rx        0152 -  8    EF D9 CE 7C 3D D7 7E 9D
   932)      2770.694 1  Rx        01A0 -  8    AB 0C 71 F2 3F 00 00 00
   933)      2770.908 1  Rx        01AC -  8    A3 1C FF A3 C3 FF FD 02
   934)      2771.164 1  Rx        02C0 -  8    FE 03 39 43 80 1C 0C 70
   935)      2775.430 1  Rx        0151 -  8    92 16 FF 7F FC 03 00 7D
   936)      2780.422 1  Rx        018D -  8    00 10 7D B3 00 00 3B 01
   937)      2780.720 1  Rx    1B000085 -  8    85 40 04 03 00 00 00 00
   938)      2785.414 1  Rx        03A3 -  8    17 9D 2F 42 42 3F FE CB
   939)      2790.448 1  Rx        00A8 -  8    00 E0 FF D6 99 64 66 0E
   940)      2790.661 1  Rx        01A0 -  8    E9 0D 71 F2 3F 00 00 00
   941)      2790.917 1  Rx        01AC -  8    9B 1D FF A3 C3 FF FD 02
   942)      2795.440 1  Rx        00EE -  8    00 00 00 00 00 00 40 8F
   943)      2800.431 1  Rx        0152 -  8    A7 DA CE 7C 3D D4 7E 9D
   944)      2805.252 1  Rx        03C0 -  4    9F 0D 23 00
   945)      2810.457 1  Rx        00FD -  8    05 E4 3F 00 00 00 00 00
   946)      2810.671 1  Rx        01A0 -  8    90 0E 71 F2 3F 00 00 00
   947)      2810.927 1  Rx        01AC -  8    FC 1E FF A3 C3 FF FD 02
   948)      2815.449 1  Rx        0504 -  8    FF 06 00 00 26 11 14 11
   949)      2820.441 1  Rx        0040 -  8    61 09 00 01 81 00 00 B6
   950)      2826.840 1  Rx        0151 -  8    3A 18 FF 7F FC 03 00 7D
   951)      2830.424 1  Rx        0040 -  8    F8 08 00 01 81 00 00 B4
   952)      2830.680 1  Rx        01A0 -  8    83 0F 71 F2 3F 00 00 00
   953)      2830.936 1  Rx        01AC -  8    BE 1F FF A3 C3 FF FD 02
   954)      2835.416 1  Rx        00A8 -  8    00 E0 FF D6 99 64 78 0E
   955)      2840.450 1  Rx        0151 -  8    17 15 FF FF FC 03 00 7D
   956)      2845.442 1  Rx        01A0 -  8    FF 9F 0F C3 3F 00 00 00
   957)      2850.433 1  Rx        01AC -  8    E0 1F F0 03 42 E2 D1 02
   958)      2850.689 1  Rx        01A0 -  8    74 00 71 F2 3F 00 00 00
   959)      2850.903 1  Rx        01AC -  8    1D 10 FF A3 C3 FF FD 02
   960)      2851.159 1  Rx        02C0 -  8    67 04 39 43 80 1C 0C 70
   961)      2855.425 1  Rx        018D -  8    00 00 7D B3 00 00 3B 01
   962)      2860.417 1  Rx        00A8 -  8    00 E0 FF D6 99 64 6E 0E
   963)      2865.451 1  Rx        00EE -  8    00 00 00 00 00 00 40 8F
   964)      2870.443 1  Rx        0152 -  8    EF D9 CE 7C 3D D7 7E 9D
   965)      2870.656 1  Rx        01A0 -  8    C3 01 71 F2 3F 00 00 00
   966)      2870.912 1  Rx        01AC -  8    D3 11 FF A3 C3 FF FD 02
   967)      2875.435 1  Rx        0151 -  8    92 16 FF 7F FC 03 00 7D
   968)      2880.426 1  Rx        018D -  8    00 10 7D B3 00 00 3B 01
   969)      2885.418 1  Rx        03A3 -  8    17 9D 2F 42 42 3F FE CB
   970)      2888.746 1  Rx    17FC0085 -  8    03 22 F1 8C FF FF FF FF
   971)      2889.428 1  Rx    17FE0085 -  8    10 17 62 F1 8C 32 38 30
   972)      2890.196 1  Rx    17FC0085 -  8    30 00 00 FF FF FF FF FF
   973)      2890.452 1  Rx    17FE0085 -  8    21 33 32 30 30 30 30 32
   974)      2890.708 1  Rx        00A8 -  8    00 E0 FF D6 99 64 66 0E
   975)      2891.007 1  Rx    17FE0085 -  8    22 30 32 34 37 20 20 20
   976)      2891.220 1  Rx        01A0 -  8    B2 02 71 F2 3F 00 00 00
   977)      2891.476 1  Rx        01AC -  8    29 12 FF A3 C3 FF FD 02
   978)      2891.732 1  Rx    17FE0085 -  8    23 20 20 20 AA AA AA AA
   979)      2895.444 1  Rx        00EE -  8    00 00 00 00 00 00 40 8F
   980)      2900.436 1  Rx        0152 -  8    A7 DA CE 7C 3D D4 7E 9D
   981)      2905.257 1  Rx        03C0 -  4    9F 0D 23 00
   982)      2910.376 1  Rx        01A0 -  8    C2 03 71 F2 3F 00 00 00
   983)      2910.632 1  Rx        00FD -  8    05 E4 3F 00 00 00 00 00
   984)      2910.888 1  Rx        01AC -  8    E3 13 FF A3 C3 FF FD 02
   985)      2915.411 1  Rx        0504 -  8    FF 06 00 00 26 11 14 11
   986)      2920.445 1  Rx        0040 -  8    61 09 00 01 81 00 00 B6
   987)      2925.437 1  Rx        0151 -  8    3A 18 FF 7F FC 03 00 7D
   988)      2930.428 1  Rx        0040 -  8    F8 08 00 01 81 00 00 B4
   989)      2930.684 1  Rx        01A0 -  8    CE 04 71 F2 3F 00 00 00
   990)      2930.898 1  Rx        01AC -  8    A6 14 FF A3 C3 FF FD 02
   991)      2931.154 1  Rx        02C0 -  8    73 05 39 43 80 1C 0C 70
   992)      2935.420 1  Rx        00A8 -  8    00 E0 FF D6 99 64 78 0E
   993)      2940.412 1  Rx        0151 -  8    17 15 FF FF FC 03 00 7D
   994)      2945.446 1  Rx        01A0 -  8    FF 9F 0F C3 3F 00 00 00
   995)      2950.438 1  Rx        01A0 -  8    FB 05 71 F2 3F 00 00 00
   996)      2950.992 1  Rx        01AC -  8    E0 1F F0 03 42 E2 D1 02
   997)      2951.206 1  Rx        01AC -  8    07 15 FF A3 C3 FF FD 02
   998)      2955.430 1  Rx        018D -  8    00 00 7D B3 00 00 3B 01
   999)      2960.421 1  Rx        00A8 -  8    00 E0 FF D6 99 64 6E 0E
  1000)      2965.413 1  Rx        00EE -  8    00 00 00 00 00 00 40 8F
  1001)      2970.405 1  Rx        0152 -  8    EF D9 CE 7C 3D D7 7E 9D
  1002)      2970.661 1  Rx        01A0 -  8    D9 06 71 F2 3F 00 00 00
  1003)      2970.917 1  Rx        01AC -  8    D0 16 FF A3 C3 FF FD 02
  1004)      2975.439 1  Rx        0151 -  8    92 16 FF 7F FC 03 00 7D
  1005)      2980.431 1  Rx        018D -  8    00 10 7D B3 00 00 3B 01
  1006)      2980.729 1  Rx    1B000085 -  8    85 40 04 03 00 00 00 00
  1007)      2985.422 1  Rx        03A3 -  8    17 9D 2F 42 42 3F FE CB
  1008)      2990.371 1  Rx        01A0 -  8    31 07 71 F2 3F 00 00 00
  1009)      2990.627 1  Rx        00A8 -  8    00 E0 FF D6 99 64 66 0E
  1010)      2990.883 1  Rx        01AC -  8    4F 17 FF A3 C3 FF FD 02
  1011)      2995.448 1  Rx        00EE -  8    00 00 00 00 00 00 40 8F
  1012)      3000.397 1  Rx        0152 -  8    A7 DA CE 7C 3D D4 7E 9D
  1013)      3005.261 1  Rx        03C0 -  4    9F 0D 23 00
  1014)      3010.423 1  Rx        00FD -  8    05 E4 3F 00 00 00 00 00
  1015)      3010.679 1  Rx        01A0 -  8    A0 08 71 F2 3F 00 00 00
  1016)      3010.893 1  Rx        01AC -  8    A0 18 FF A3 C3 FF FD 02
  1017)      3011.149 1  Rx        02C0 -  8    8E 06 39 43 80 1C 0C 70
  1018)      3015.415 1  Rx        0504 -  8    FF 06 00 00 26 11 14 11
  1019)      3020.407 1  Rx        0040 -  8    61 09 00 01 81 00 00 B6
  1020)      3025.399 1  Rx        0151 -  8    3A 18 FF 7F FC 03 00 7D
  1021)      3030.390 1  Rx        01A0 -  8    36 09 71 F2 3F 00 00 00
  1022)      3030.646 1  Rx        0040 -  8    F8 08 00 01 81 00 00 B4
  1023)      3030.902 1  Rx        01AC -  8    61 19 FF A3 C3 FF FD 02
  1024)      3035.425 1  Rx        00A8 -  8    00 E0 FF D6 99 64 78 0E
  1025)      3040.416 1  Rx        0151 -  8    17 15 FF FF FC 03 00 7D
  1026)      3045.408 1  Rx        01A0 -  8    FF 9F 0F C3 3F 00 00 00
  1027)      3050.400 1  Rx        01AC -  8    E0 1F F0 03 42 E2 D1 02
  1028)      3050.869 1  Rx        01A0 -  8    14 0A 71 F2 3F 00 00 00
  1029)      3051.125 1  Rx        01AC -  8    4D 1A FF A3 C3 FF FD 02
  1030)      3055.434 1  Rx        018D -  8    00 00 7D B3 00 00 3B 01
  1031)      3060.433 1  Rx        00A8 -  8    00 E0 FF D6 99 64 6E 0E
  1032)      3065.424 1  Rx        00EE -  8    00 00 00 00 00 00 40 8F
  1033)      3070.416 1  Rx        0152 -  8    EF D9 CE 7C 3D D7 7E 9D
  1034)      3070.672 1  Rx        01A0 -  8    71 0B 71 F2 3F 00 00 00
  1035)      3070.885 1  Rx        01AC -  8    E5 1B FF A3 C3 FF FD 02
  1036)      3075.408 1  Rx        0151 -  8    92 16 FF 7F FC 03 00 7D
  1037)      3080.442 1  Rx        018D -  8    00 10 7D B3 00 00 3B 01
  1038)      3085.434 1  Rx        03A3 -  8    17 9D 2F 42 42 3F FE CB
  1039)      3090.425 1  Rx        00A8 -  8    00 E0 FF D6 99 64 66 0E
  1040)      3090.639 1  Rx        01A0 -  8    AB 0C 71 F2 3F 00 00 00
  1041)      3090.895 1  Rx        01AC -  8    A3 1C FF A3 C3 FF FD 02
  1042)      3091.151 1  Rx        02C0 -  8    2E 07 39 43 80 1C 0C 70
  1043)      3095.417 1  Rx        00EE -  8    00 00 00 00 00 00 40 8F
  1044)      3100.409 1  Rx        0152 -  8    A7 DA CE 7C 3D D4 7E 9D
  1045)      3105.230 1  Rx        03C0 -  4    9F 0D 23 00
  1046)      3110.392 1  Rx        01A0 -  8    E9 0D 71 F2 3F 00 00 00
  1047)      3110.606 1  Rx        00FD -  8    05 E4 3F 00 00 00 00 00
  1048)      3110.861 1  Rx        01AC -  8    9B 1D FF A3 C3 FF FD 02
  1049)      3115.427 1  Rx        0504 -  8    FF 06 00 00 26 11 14 11
  1050)      3120.418 1  Rx        0040 -  8    61 09 00 01 81 00 00 B6
  1051)      3125.410 1  Rx        0151 -  8    3A 18 FF 7F FC 03 00 7D
  1052)      3130.444 1  Rx        0040 -  8    F8 08 00 01 81 00 00 B4
  1053)      3130.658 1  Rx        01A0 -  8    90 0E 71 F2 3F 00 00 00
  1054)      3130.914 1  Rx        01AC -  8    FC 1E FF A3 C3 FF FD 02
  1055)      3136.801 1  Rx        00A8 -  8    00 E0 FF D6 99 64 78 0E
  1056)      3140.428 1  Rx        0151 -  8    17 15 FF FF FC 03 00 7D
  1057)      3145.419 1  Rx        01A0 -  8    FF 9F 0F C3 3F 00 00 00
  1058)      3148.704 1  Rx    17FC0085 -  8    03 22 F1 DF FF FF FF FF
  1059)      3149.430 1  Rx    17FE0085 -  8    04 62 F1 DF 40 AA AA AA
  1060)      3150.411 1  Rx        01AC -  8    E0 1F F0 03 42 E2 D1 02
  1061)      3150.966 1  Rx        01A0 -  8    83 0F 71 F2 3F 00 00 00
  1062)      3151.222 1  Rx        01AC -  8    BE 1F FF A3 C3 FF FD 02
  1063)      3155.403 1  Rx        018D -  8    00 00 7D B3 00 00 3B 01
  1064)      3160.394 1  Rx        00A8 -  8    00 E0 FF D6 99 64 6E 0E
  1065)      3165.429 1  Rx        00EE -  8    00 00 00 00 00 00 40 8F
  1066)      3170.420 1  Rx        0152 -  8    EF D9 CE 7C 3D D7 7E 9D
  1067)      3170.634 1  Rx        01A0 -  8    74 00 71 F2 3F 00 00 00
  1068)      3170.890 1  Rx        01AC -  8    1D 10 FF A3 C3 FF FD 02
  1069)      3171.146 1  Rx        02C0 -  8    7F 08 39 43 80 1C 0C 70
  1070)      3175.412 1  Rx        0151 -  8    92 16 FF 7F FC 03 00 7D
  1071)      3180.404 1  Rx        018D -  8    00 10 7D B3 00 00 3B 01
  1072)      3180.702 1  Rx    1B000085 -  8    85 40 04 03 00 00 00 00
  1073)      3185.396 1  Rx        03A3 -  8    17 9D 2F 42 42 3F FE CB
  1074)      3190.430 1  Rx        00A8 -  8    00 E0 FF D6 99 64 66 0E
  1075)      3190.643 1  Rx        01A0 -  8    C3 01 71 F2 3F 00 00 00
  1076)      3190.899 1  Rx        01AC -  8    D3 11 FF A3 C3 FF FD 02
  1077)      3191.198 1  Rx    17F00085 -  8    20 85 00 00 00 00 01 80
  1078)      3191.454 1  Rx    1A5554A7 -  8    42 00 00 00 00 00 00 80
  1079)      3195.422 1  Rx        00EE -  8    00 00 00 00 00 00 40 8F
  1080)      3200.413 1  Rx        0152 -  8    A7 DA CE 7C 3D D4 7E 9D
  1081)      3205.234 1  Rx        03C0 -  4    9F 0D 23 00
  1082)      3210.397 1  Rx        00FD -  8    05 E4 3F 00 00 00 00 00
  1083)      3210.653 1  Rx        01A0 -  8    B2 02 71 F2 3F 00 00 00
  1084)      3210.909 1  Rx        01AC -  8    29 12 FF A3 C3 FF FD 02
  1085)      3215.431 1  Rx        0504 -  8    FF 06 00 00 26 11 14 11
  1086)      3220.423 1  Rx        0040 -  8    61 09 00 01 81 00 00 B6
  1087)      3225.414 1  Rx        0151 -  8    3A 18 FF 7F FC 03 00 7D
  1088)      3230.406 1  Rx        01A0 -  8    C2 03 71 F2 3F 00 00 00
  1089)      3230.662 1  Rx        0040 -  8    F8 08 00 01 81 00 00 B4
  1090)      3230.918 1  Rx        01AC -  8    E3 13 FF A3 C3 FF FD 02
  1091)      3235.398 1  Rx        00A8 -  8    00 E0 FF D6 99 64 78 0E
  1092)      3240.432 1  Rx        0151 -  8    17 15 FF FF FC 03 00 7D
  1093)      3245.424 1  Rx        01A0 -  8    FF 9F 0F C3 3F 00 00 00
  1094)      3250.415 1  Rx        01AC -  8    E0 1F F0 03 42 E2 D1 02
  1095)      3250.629 1  Rx        01A0 -  8    CE 04 71 F2 3F 00 00 00
  1096)      3250.885 1  Rx        01AC -  8    A6 14 FF A3 C3 FF FD 02
  1097)      3251.098 1  Rx        02C0 -  8    8A 09 39 43 80 1C 0C 70
  1098)      3255.407 1  Rx        018D -  8    00 00 7D B3 00 00 3B 01
  1099)      3260.399 1  Rx        00A8 -  8    00 E0 FF D6 99 64 6E 0E
  1100)      3265.433 1  Rx        00EE -  8    00 00 00 00 00 00 40 8F
  1101)      3270.382 1  Rx        0152 -  8    EF D9 CE 7C 3D D7 7E 9D
  1102)      3270.894 1  Rx        01A0 -  8    FB 05 71 F2 3F 00 00 00
  1103)      3271.107 1  Rx        01AC -  8    07 15 FF A3 C3 FF FD 02
  1104)      3275.417 1  Rx        0151 -  8    92 16 FF 7F FC 03 00 7D
  1105)      3280.408 1  Rx        018D -  8    00 10 7D B3 00 00 3B 01
  1106)      3285.400 1  Rx        03A3 -  8    17 9D 2F 42 42 3F FE CB
  1107)      3290.349 1  Rx        01A0 -  8    D9 06 71 F2 3F 00 00 00
  1108)      3290.605 1  Rx        00A8 -  8    00 E0 FF D6 99 64 66 0E
  1109)      3290.818 1  Rx        01AC -  8    D0 16 FF A3 C3 FF FD 02
  1110)      3295.426 1  Rx        00EE -  8    00 00 00 00 00 00 40 8F
  1111)      3300.418 1  Rx        0152 -  8    A7 DA CE 7C 3D D4 7E 9D
  1112)      3305.239 1  Rx        03C0 -  4    9F 0D 23 00
  1113)      3310.401 1  Rx        00FD -  8    05 E4 3F 00 00 00 00 00
  1114)      3310.657 1  Rx        01A0 -  8    31 07 71 F2 3F 00 00 00
  1115)      3310.870 1  Rx        01AC -  8    4F 17 FF A3 C3 FF FD 02
  1116)      3315.393 1  Rx        0504 -  8    FF 06 00 00 26 11 14 11
  1117)      3320.427 1  Rx        0040 -  8    61 09 00 01 81 00 00 B6
  1118)      3325.419 1  Rx        0151 -  8    3A 18 FF 7F FC 03 00 7D
  1119)      3330.410 1  Rx        0040 -  8    F8 08 00 01 81 00 00 B4
  1120)      3330.666 1  Rx        01A0 -  8    A0 08 71 F2 3F 00 00 00
  1121)      3330.880 1  Rx        01AC -  8    A0 18 FF A3 C3 FF FD 02
  1122)      3331.136 1  Rx        02C0 -  8    3E 0A 39 43 80 1C 0C 70
  1123)      3335.402 1  Rx        00A8 -  8    00 E0 FF D6 99 64 78 0E
  1124)      3340.394 1  Rx        0151 -  8    17 15 FF FF FC 03 00 7D
  1125)      3345.386 1  Rx        01A0 -  8    FF 9F 0F C3 3F 00 00 00
  1126)      3350.377 1  Rx        01AC -  8    E0 1F F0 03 42 E2 D1 02
  1127)      3350.633 1  Rx        01A0 -  8    36 09 71 F2 3F 00 00 00
  1128)      3350.889 1  Rx        01AC -  8    61 19 FF A3 C3 FF FD 02
  1129)      3355.412 1  Rx        018D -  8    00 00 7D B3 00 00 3B 01
  1130)      3360.403 1  Rx        00A8 -  8    00 E0 FF D6 99 64 6E 0E
  1131)      3365.395 1  Rx        00EE -  8    00 00 00 00 00 00 40 8F
  1132)      3370.387 1  Rx        0152 -  8    EF D9 CE 7C 3D D7 7E 9D
  1133)      3370.643 1  Rx        01A0 -  8    14 0A 71 F2 3F 00 00 00
  1134)      3370.856 1  Rx        01AC -  8    4D 1A FF A3 C3 FF FD 02
  1135)      3375.378 1  Rx        0151 -  8    92 16 FF 7F FC 03 00 7D
  1136)      3380.413 1  Rx        018D -  8    00 10 7D B3 00 00 3B 01
  1137)      3380.669 1  Rx    1B000085 -  8    85 40 04 03 00 00 00 00
  1138)      3385.404 1  Rx        03A3 -  8    17 9D 2F 42 42 3F FE CB
  1139)      3390.396 1  Rx        00A8 -  8    00 E0 FF D6 99 64 66 0E
  1140)      3390.652 1  Rx        01A0 -  8    71 0B 71 F2 3F 00 00 00
  1141)      3390.865 1  Rx        01AC -  8    E5 1B FF A3 C3 FF FD 02
  1142)      3395.388 1  Rx        00EE -  8    00 00 00 00 00 00 40 8F
  1143)      3400.379 1  Rx        0152 -  8    A7 DA CE 7C 3D D4 7E 9D
  1144)      3405.243 1  Rx        03C0 -  4    9F 0D 23 00
  1145)      3407.163 1  Rx    17FC0085 -  8    03 22 06 00 FF FF FF FF
  1146)      3409.382 1  Rx    17FE0085 -  8    10 0A 62 06 00 30 00 04
  1147)      3410.107 1  Rx    17FC0085 -  8    30 00 00 FF FF FF FF FF
  1148)      3410.405 1  Rx    17FE0085 -  8    21 00 00 00 00 AA AA AA
  1149)      3410.661 1  Rx        00FD -  8    05 E4 3F 00 00 00 00 00
  1150)      3411.088 1  Rx        01A0 -  8    AB 0C 71 F2 3F 00 00 00
  1151)      3411.301 1  Rx        01AC -  8    A3 1C FF A3 C3 FF FD 02
  1152)      3411.557 1  Rx        02C0 -  8    7B 0B 39 43 80 1C 0C 70
  1153)      3415.397 1  Rx        0504 -  8    FF 06 00 00 26 11 14 11
  1154)      3420.389 1  Rx        0040 -  8    61 09 00 01 81 00 00 B6
  1155)      3425.381 1  Rx        0151 -  8    3A 18 FF 7F FC 03 00 7D
  1156)      3430.415 1  Rx        0040 -  8    F8 08 00 01 81 00 00 B4
  1157)      3430.628 1  Rx        01A0 -  8    E9 0D 71 F2 3F 00 00 00
  1158)      3430.884 1  Rx        01AC -  8    9B 1D FF A3 C3 FF FD 02
  1159)      3435.407 1  Rx        00A8 -  8    00 E0 FF D6 99 64 78 0E
  1160)      3440.398 1  Rx        0151 -  8    17 15 FF FF FC 03 00 7D
  1161)      3446.798 1  Rx        01A0 -  8    FF 9F 0F C3 3F 00 00 00
  1162)      3450.382 1  Rx        01AC -  8    E0 1F F0 03 42 E2 D1 02
  1163)      3450.638 1  Rx        01A0 -  8    90 0E 71 F2 3F 00 00 00
  1164)      3450.851 1  Rx        01AC -  8    FC 1E FF A3 C3 FF FD 02
  1165)      3455.373 1  Rx        018D -  8    00 00 7D B3 00 00 3B 01
  1166)      3460.408 1  Rx        00A8 -  8    00 E0 FF D6 99 64 6E 0E
  1167)      3465.399 1  Rx        00EE -  8    00 00 00 00 00 00 40 8F
  1168)      3470.306 1  Rx        01A0 -  8    83 0F 71 F2 3F 00 00 00
  1169)      3470.519 1  Rx        0152 -  8    EF D9 CE 7C 3D D7 7E 9D
  1170)      3470.775 1  Rx        01AC -  8    BE 1F FF A3 C3 FF FD 02
  1171)      3475.383 1  Rx        0151 -  8    92 16 FF 7F FC 03 00 7D
  1172)      3480.374 1  Rx        018D -  8    00 10 7D B3 00 00 3B 01
  1173)      3485.366 1  Rx        03A3 -  8    17 9D 2F 42 42 3F FE CB
  1174)      3490.400 1  Rx        00A8 -  8    00 E0 FF D6 99 64 66 0E
  1175)      3490.656 1  Rx        01A0 -  8    74 00 71 F2 3F 00 00 00
  1176)      3490.912 1  Rx        01AC -  8    1D 10 FF A3 C3 FF FD 02
  1177)      3491.126 1  Rx        02C0 -  8    23 0C 39 43 80 1C 0C 70
  1178)      3495.392 1  Rx        00EE -  8    00 00 00 00 00 00 40 8F
  1179)      3500.384 1  Rx        0152 -  8    A7 DA CE 7C 3D D4 7E 9D
  1180)      3505.205 1  Rx        03C0 -  4    9F 0D 23 00
  1181)      3510.410 1  Rx        00FD -  8    05 E4 3F 00 00 00 00 00
  1182)      3510.623 1  Rx        01A0 -  8    C3 01 71 F2 3F 00 00 00
  1183)      3510.879 1  Rx        01AC -  8    D3 11 FF A3 C3 FF FD 02
  1184)      3511.135 1  Rx    1A555510 -  8    81 32 38 52 20 93 00 00
  1185)      3515.402 1  Rx        0504 -  8    FF 06 00 00 26 11 14 11
  1186)      3520.393 1  Rx        0040 -  8    61 09 00 01 81 00 00 B6
  1187)      3525.385 1  Rx        0151 -  8    3A 18 FF 7F FC 03 00 7D
  1188)      3530.377 1  Rx        0040 -  8    F8 08 00 01 81 00 00 B4
  1189)      3530.633 1  Rx        01A0 -  8    B2 02 71 F2 3F 00 00 00
  1190)      3530.846 1  Rx        01AC -  8    29 12 FF A3 C3 FF FD 02
  1191)      3535.368 1  Rx        00A8 -  8    00 E0 FF D6 99 64 78 0E
  1192)      3540.403 1  Rx        0151 -  8    17 15 FF FF FC 03 00 7D
  1193)      3545.394 1  Rx        01A0 -  8    FF 9F 0F C3 3F 00 00 00
  1194)      3550.386 1  Rx        01AC -  8    E0 1F F0 03 42 E2 D1 02
  1195)      3550.599 1  Rx        01A0 -  8    C2 03 71 F2 3F 00 00 00
  1196)      3550.855 1  Rx        01AC -  8    E3 13 FF A3 C3 FF FD 02
  1197)      3555.378 1  Rx        018D -  8    00 00 7D B3 00 00 3B 01
  1198)      3560.369 1  Rx        00A8 -  8    00 E0 FF D6 99 64 6E 0E
  1199)      3565.404 1  Rx        00EE -  8    00 00 00 00 00 00 40 8F
  1200)      3570.395 1  Rx        0152 -  8    EF D9 CE 7C 3D D7 7E 9D
  1201)      3570.609 1  Rx        01A0 -  8    CE 04 71 F2 3F 00 00 00
  1202)      3570.865 1  Rx        01AC -  8    A6 14 FF A3 C3 FF FD 02
  1203)      3571.078 1  Rx        02C0 -  8    4B 0D 39 43 80 1C 0C 70
  1204)      3575.387 1  Rx        0151 -  8    92 16 FF 7F FC 03 00 7D
  1205)      3580.379 1  Rx    1B000085 -  8    85 40 04 03 00 00 00 00
  1206)      3580.635 1  Rx        018D -  8    00 10 7D B3 00 00 3B 01
  1207)      3585.371 1  Rx        03A3 -  8    17 9D 2F 42 42 3F FE CB
  1208)      3590.362 1  Rx        00A8 -  8    00 E0 FF D6 99 64 66 0E
  1209)      3590.618 1  Rx        01A0 -  8    FB 05 71 F2 3F 00 00 00
  1210)      3590.874 1  Rx        01AC -  8    07 15 FF A3 C3 FF FD 02
  1211)      3595.397 1  Rx        00EE -  8    00 00 00 00 00 00 40 8F
  1212)      3600.388 1  Rx        0152 -  8    A7 DA CE 7C 3D D4 7E 9D
  1213)      3605.209 1  Rx        03C0 -  4    9F 0D 23 00
  1214)      3610.372 1  Rx        00FD -  8    05 E4 3F 00 00 00 00 00
  1215)      3610.628 1  Rx        01A0 -  8    D9 06 71 F2 3F 00 00 00
  1216)      3610.841 1  Rx        01AC -  8    D0 16 FF A3 C3 FF FD 02
  1217)      3615.363 1  Rx        0504 -  8    FF 06 00 00 26 11 14 11
  1218)      3620.398 1  Rx        0040 -  8    61 09 00 01 81 00 00 B6
  1219)      3625.389 1  Rx        0151 -  8    3A 18 FF 7F FC 03 00 7D
  1220)      3630.381 1  Rx        0040 -  8    F8 08 00 01 81 00 00 B4
  1221)      3630.637 1  Rx        01A0 -  8    31 07 71 F2 3F 00 00 00
  1222)      3630.893 1  Rx        01AC -  8    4F 17 FF A3 C3 FF FD 02
  1223)      3635.373 1  Rx        00A8 -  8    00 E0 FF D6 99 64 78 0E
  1224)      3640.364 1  Rx        0151 -  8    17 15 FF FF FC 03 00 7D
  1225)      3645.399 1  Rx        01A0 -  8    FF 9F 0F C3 3F 00 00 00
  1226)      3650.390 1  Rx        01AC -  8    E0 1F F0 03 42 E2 D1 02
  1227)      3650.604 1  Rx        01A0 -  8    A0 08 71 F2 3F 00 00 00
  1228)      3650.860 1  Rx        01AC -  8    A0 18 FF A3 C3 FF FD 02
  1229)      3651.073 1  Rx        02C0 -  8    D5 0E 39 43 80 1C 0C 70
  1230)      3655.382 1  Rx        018D -  8    00 00 7D B3 00 00 3B 01
  1231)      3660.374 1  Rx        00A8 -  8    00 E0 FF D6 99 64 6E 0E
  1232)      3665.366 1  Rx        00EE -  8    00 00 00 00 00 00 40 8F
  1233)      3670.315 1  Rx        01A0 -  8    36 09 71 F2 3F 00 00 00
  1234)      3670.571 1  Rx        0152 -  8    EF D9 CE 7C 3D D7 7E 9D
  1235)      3670.784 1  Rx        01AC -  8    61 19 FF A3 C3 FF FD 02
  1236)      3671.082 1  Rx    17FC0085 -  8    03 22 F1 A0 FF FF FF FF
  1237)      3675.349 1  Rx        0151 -  8    92 16 FF 7F FC 03 00 7D
  1238)      3679.274 1  Rx    17FE0085 -  8    10 0E 62 F1 A0 34 4D 38
  1239)      3679.999 1  Rx    17FC0085 -  8    30 00 00 FF FF FF FF FF
  1240)      3680.298 1  Rx    17FE0085 -  8    21 39 30 39 34 39 30 41
  1241)      3680.511 1  Rx        018D -  8    00 10 7D B3 00 00 3B 01
  1242)      3680.810 1  Rx    17FE0085 -  8    22 20 AA AA AA AA AA AA
  1243)      3685.375 1  Rx        03A3 -  8    17 9D 2F 42 42 3F FE CB
  1244)      3690.367 1  Rx        00A8 -  8    00 E0 FF D6 99 64 66 0E
  1245)      3690.623 1  Rx        01A0 -  8    14 0A 71 F2 3F 00 00 00
  1246)      3690.836 1  Rx        01AC -  8    4D 1A FF A3 C3 FF FD 02
  1247)      3691.135 1  Rx    17F00085 -  8    20 85 00 00 00 00 01 80
  1248)      3691.433 1  Rx    1A5554A7 -  8    42 00 00 00 00 00 00 80
  1249)      3695.358 1  Rx        00EE -  8    00 00 00 00 00 00 40 8F
  1250)      3700.350 1  Rx        0152 -  8    A7 DA CE 7C 3D D4 7E 9D
  1251)      3705.214 1  Rx        03C0 -  4    9F 0D 23 00
  1252)      3710.376 1  Rx        00FD -  8    05 E4 3F 00 00 00 00 00
  1253)      3710.632 1  Rx        01A0 -  8    71 0B 71 F2 3F 00 00 00
  1254)      3710.845 1  Rx        01AC -  8    E5 1B FF A3 C3 FF FD 02
  1255)      3715.368 1  Rx        0504 -  8    FF 06 00 00 26 11 14 11
  1256)      3720.359 1  Rx        0040 -  8    61 09 00 01 81 00 00 B6
  1257)      3725.351 1  Rx        0151 -  8    3A 18 FF 7F FC 03 00 7D
  1258)      3730.300 1  Rx        01A0 -  8    AB 0C 71 F2 3F 00 00 00
  1259)      3730.556 1  Rx        0040 -  8    F8 08 00 01 81 00 00 B4
  1260)      3730.812 1  Rx        01AC -  8    A3 1C FF A3 C3 FF FD 02
  1261)      3731.025 1  Rx        02C0 -  8    F9 0F 39 43 80 1C 0C 70
  1262)      3735.377 1  Rx        00A8 -  8    00 E0 FF D6 99 64 78 0E
  1263)      3740.369 1  Rx        0151 -  8    17 15 FF FF FC 03 00 7D
  1264)      3745.361 1  Rx        01A0 -  8    FF 9F 0F C3 3F 00 00 00
  1265)      3750.480 1  Rx        01A0 -  8    E9 0D 71 F2 3F 00 00 00
  1266)      3750.736 1  Rx        01AC -  8    9B 1D FF A3 C3 FF FD 02
  1267)      3751.760 1  Rx        01AC -  8    E0 1F F0 03 42 E2 D1 02
  1268)      3755.387 1  Rx        018D -  8    00 00 7D B3 00 00 3B 01
  1269)      3760.378 1  Rx        00A8 -  8    00 E0 FF D6 99 64 6E 0E
  1270)      3765.370 1  Rx        00EE -  8    00 00 00 00 00 00 40 8F
  1271)      3770.362 1  Rx        0152 -  8    EF D9 CE 7C 3D D7 7E 9D
  1272)      3770.618 1  Rx        01A0 -  8    90 0E 71 F2 3F 00 00 00
  1273)      3770.831 1  Rx        01AC -  8    FC 1E FF A3 C3 FF FD 02
  1274)      3775.353 1  Rx        0151 -  8    92 16 FF 7F FC 03 00 7D
  1275)      3780.345 1  Rx    1B000085 -  8    85 40 04 03 00 00 00 00
  1276)      3780.558 1  Rx        018D -  8    00 10 7D B3 00 00 3B 01
  1277)      3785.337 1  Rx        03A3 -  8    17 9D 2F 42 42 3F FE CB
  1278)      3790.371 1  Rx        00A8 -  8    00 E0 FF D6 99 64 66 0E
  1279)      3790.584 1  Rx        01A0 -  8    83 0F 71 F2 3F 00 00 00
  1280)      3790.840 1  Rx        01AC -  8    BE 1F FF A3 C3 FF FD 02
  1281)      3795.363 1  Rx        00EE -  8    00 00 00 00 00 00 40 8F
  1282)      3800.354 1  Rx        0152 -  8    A7 DA CE 7C 3D D4 7E 9D
  1283)      3805.175 1  Rx        03C0 -  4    9F 0D 23 00
  1284)      3810.380 1  Rx        00FD -  8    05 E4 3F 00 00 00 00 00
  1285)      3810.594 1  Rx        01A0 -  8    74 00 71 F2 3F 00 00 00
  1286)      3810.850 1  Rx        01AC -  8    1D 10 FF A3 C3 FF FD 02
  1287)      3811.063 1  Rx        02C0 -  8    61 00 39 43 80 1C 0C 70
  1288)      3815.372 1  Rx        0504 -  8    FF 06 00 00 26 11 14 11
  1289)      3820.364 1  Rx        0040 -  8    61 09 00 01 81 00 00 B6
  1290)      3825.356 1  Rx        0151 -  8    3A 18 FF 7F FC 03 00 7D
  1291)      3830.347 1  Rx        0040 -  8    F8 08 00 01 81 00 00 B4
  1292)      3830.603 1  Rx        01A0 -  8    C3 01 71 F2 3F 00 00 00
  1293)      3830.859 1  Rx        01AC -  8    D3 11 FF A3 C3 FF FD 02
  1294)      3835.339 1  Rx        00A8 -  8    00 E0 FF D6 99 64 78 0E
  1295)      3840.373 1  Rx        0151 -  8    17 15 FF FF FC 03 00 7D
  1296)      3845.365 1  Rx        01A0 -  8    FF 9F 0F C3 3F 00 00 00
  1297)      3850.314 1  Rx        01A0 -  8    B2 02 71 F2 3F 00 00 00
  1298)      3851.765 1  Rx        01AC -  8    E0 1F F0 03 42 E2 D1 02
  1299)      3851.978 1  Rx        01AC -  8    29 12 FF A3 C3 FF FD 02
  1300)      3855.348 1  Rx        018D -  8    00 00 7D B3 00 00 3B 01
  1301)      3860.340 1  Rx        00A8 -  8    00 E0 FF D6 99 64 6E 0E
  1302)      3865.374 1  Rx        00EE -  8    00 00 00 00 00 00 40 8F
  1303)      3870.366 1  Rx        0152 -  8    EF D9 CE 7C 3D D7 7E 9D
  1304)      3870.579 1  Rx        01A0 -  8    C2 03 71 F2 3F 00 00 00
  1305)      3870.835 1  Rx        01AC -  8    E3 13 FF A3 C3 FF FD 02
  1306)      3875.358 1  Rx        0151 -  8    92 16 FF 7F FC 03 00 7D
  1307)      3880.349 1  Rx        018D -  8    00 10 7D B3 00 00 3B 01
  1308)      3885.341 1  Rx        03A3 -  8    17 9D 2F 42 42 3F FE CB
  1309)      3890.333 1  Rx        00A8 -  8    00 E0 FF D6 99 64 66 0E
  1310)      3890.589 1  Rx        01A0 -  8    CE 04 71 F2 3F 00 00 00
  1311)      3890.845 1  Rx        01AC -  8    A6 14 FF A3 C3 FF FD 02
  1312)      3891.101 1  Rx        02C0 -  8    B9 01 39 43 80 1C 0C 70
  1313)      3895.367 1  Rx        00EE -  8    00 00 00 00 00 00 40 8F
  1314)      3900.359 1  Rx        0152 -  8    A7 DA CE 7C 3D D4 7E 9D
  1315)      3905.180 1  Rx        03C0 -  4    9F 0D 23 00
  1316)      3910.342 1  Rx        01A0 -  8    FB 05 71 F2 3F 00 00 00
  1317)      3910.598 1  Rx        00FD -  8    05 E4 3F 00 00 00 00 00
  1318)      3910.811 1  Rx        01AC -  8    07 15 FF A3 C3 FF FD 02
  1319)      3915.334 1  Rx        0504 -  8    FF 06 00 00 26 11 14 11
  1320)      3920.368 1  Rx        0040 -  8    61 09 00 01 81 00 00 B6
  1321)      3925.360 1  Rx        0151 -  8    3A 18 FF 7F FC 03 00 7D
  1322)      3930.352 1  Rx        0040 -  8    F8 08 00 01 81 00 00 B4
  1323)      3930.608 1  Rx        01A0 -  8    D9 06 71 F2 3F 00 00 00
  1324)      3930.821 1  Rx        01AC -  8    D0 16 FF A3 C3 FF FD 02
  1325)      3935.343 1  Rx        00A8 -  8    00 E0 FF D6 99 64 78 0E
  1326)      3940.079 1  Rx    17FC0085 -  8    03 22 F1 A1 FF FF FF FF
  1327)      3940.335 1  Rx        0151 -  8    17 15 FF FF FC 03 00 7D
  1328)      3945.369 1  Rx        01A0 -  8    FF 9F 0F C3 3F 00 00 00
  1329)      3949.166 1  Rx    17FE0085 -  8    07 62 F1 A1 30 30 30 34
  1330)      3950.361 1  Rx        01AC -  8    E0 1F F0 03 42 E2 D1 02
  1331)      3950.574 1  Rx        01A0 -  8    31 07 71 F2 3F 00 00 00
  1332)      3950.830 1  Rx        01AC -  8    4F 17 FF A3 C3 FF FD 02
  1333)      3955.353 1  Rx        018D -  8    00 00 7D B3 00 00 3B 01
  1334)      3960.344 1  Rx        00A8 -  8    00 E0 FF D6 99 64 6E 0E
  1335)      3965.336 1  Rx        00EE -  8    00 00 00 00 00 00 40 8F
  1336)      3970.328 1  Rx        0152 -  8    EF D9 CE 7C 3D D7 7E 9D
  1337)      3970.584 1  Rx        01A0 -  8    A0 08 71 F2 3F 00 00 00
  1338)      3970.797 1  Rx        01AC -  8    A0 18 FF A3 C3 FF FD 02
  1339)      3971.053 1  Rx        02C0 -  8    46 02 39 43 80 1C 0C 70
  1340)      3975.319 1  Rx        0151 -  8    92 16 FF 7F FC 03 00 7D
  1341)      3980.439 1  Rx        018D -  8    00 10 7D B3 00 00 3B 01
  1342)      3980.738 1  Rx    1B000085 -  8    85 40 04 03 00 00 00 00
  1343)      3985.346 1  Rx        03A3 -  8    17 9D 2F 42 42 3F FE CB
  1344)      3990.252 1  Rx        01A0 -  8    36 09 71 F2 3F 00 00 00
  1345)      3990.465 1  Rx        00A8 -  8    00 E0 FF D6 99 64 66 0E
  1346)      3990.721 1  Rx        01AC -  8    61 19 FF A3 C3 FF FD 02
  1347)      3995.372 1  Rx        00EE -  8    00 00 00 00 00 00 40 8F
  1348)      4000.321 1  Rx        0152 -  8    A7 DA CE 7C 3D D4 7E 9D
  1349)      4005.184 1  Rx        03C0 -  4    9F 0D 23 00
  1350)      4010.347 1  Rx        01A0 -  8    14 0A 71 F2 3F 00 00 00
  1351)      4010.560 1  Rx        00FD -  8    05 E4 3F 00 00 00 00 00
  1352)      4010.816 1  Rx        01AC -  8    4D 1A FF A3 C3 FF FD 02
  1353)      4015.338 1  Rx        0504 -  8    FF 06 00 00 26 11 14 11
  1354)      4020.330 1  Rx        0040 -  8    61 09 00 01 81 00 00 B6
  1355)      4025.322 1  Rx        0151 -  8    3A 18 FF 7F FC 03 00 7D
  1356)      4030.271 1  Rx        01A0 -  8    71 0B 71 F2 3F 00 00 00
  1357)      4030.527 1  Rx        0040 -  8    F8 08 00 01 81 00 00 B4
  1358)      4030.783 1  Rx        01AC -  8    E5 1B FF A3 C3 FF FD 02
  1359)      4035.348 1  Rx        00A8 -  8    00 E0 FF D6 99 64 78 0E
  1360)      4040.339 1  Rx        0151 -  8    17 15 FF FF FC 03 00 7D
  1361)      4045.331 1  Rx        01A0 -  8    FF 9F 0F C3 3F 00 00 00
  1362)      4050.323 1  Rx        01AC -  8    E0 1F F0 03 42 E2 D1 02
  1363)      4050.579 1  Rx        01A0 -  8    AB 0C 71 F2 3F 00 00 00
  1364)      4050.792 1  Rx        01AC -  8    A3 1C FF A3 C3 FF FD 02
  1365)      4051.048 1  Rx        02C0 -  8    FE 03 39 43 80 1C 0C 70
  1366)      4055.357 1  Rx        018D -  8    00 00 7D B3 00 00 3B 01
  1367)      4061.744 1  Rx        00A8 -  8    00 E0 FF D6 99 64 6E 0E
  1368)      4065.371 1  Rx        00EE -  8    00 00 00 00 00 00 40 8F
  1369)      4070.277 1  Rx        01A0 -  8    E9 0D 71 F2 3F 00 00 00
  1370)      4070.490 1  Rx        0152 -  8    EF D9 CE 7C 3D D7 7E 9D
  1371)      4070.746 1  Rx        01AC -  8    9B 1D FF A3 C3 FF FD 02
  1372)      4075.354 1  Rx        0151 -  8    92 16 FF 7F FC 03 00 7D
  1373)      4080.388 1  Rx        018D -  8    00 10 7D B3 00 00 3B 01
  1374)      4085.337 1  Rx        03A3 -  8    17 9D 2F 42 42 3F FE CB
  1375)      4090.286 1  Rx        01A0 -  8    90 0E 71 F2 3F 00 00 00
  1376)      4090.500 1  Rx        00A8 -  8    00 E0 FF D6 99 64 66 0E
  1377)      4090.756 1  Rx        01AC -  8    FC 1E FF A3 C3 FF FD 02
  1378)      4095.363 1  Rx        00EE -  8    00 00 00 00 00 00 40 8F
  1379)      4100.355 1  Rx        0152 -  8    A7 DA CE 7C 3D D4 7E 9D
  1380)      4105.176 1  Rx        03C0 -  4    9F 0D 23 00
  1381)      4110.381 1  Rx        00FD -  8    05 E4 3F 00 00 00 00 00
  1382)      4110.594 1  Rx        01A0 -  8    83 0F 71 F2 3F 00 00 00
  1383)      4110.850 1  Rx        01AC -  8    BE 1F FF A3 C3 FF FD 02
  1384)      4115.373 1  Rx        0504 -  8    FF 06 00 00 26 11 14 11
  1385)      4120.364 1  Rx        0040 -  8    61 09 00 01 81 00 00 B6
